! Filename:  P:\Prog\Test\Noise\ATS_data\Testdata_Net\03 Spar\BFU550A_APG2013_35_C05_03p3V_003mA_SP_CM01_D.s2p
! Date/Time: Tue 16/Apr/2013 15:10:18
! BFU550A_APG2013_35_C05_03p3V_1to35mA_SP_CM01_Bias3_R.s2p
! MDIF S-parameter v. bias file
! BFU530A_APG2013_33_A09_08p0V_015mA_SP_CM01
! Date/time Mon Apr 15 14:22:32 2013
! VAR V_out= 3.3000
! VAR I_out= 3.0000
! VAR V_in= 0.8103
! VAR I_in= 0.0320
! Device data file deembeded for feedlines and parallel
! Original file: \03 Spar\BFU550A_APG2013_35_C05_03p3V_003mA_SP_CM01_R.s2p
! Feed-files: PR017V01_150413_Feed1.s2p, PR017V01_150413_Feed2.s2p
! Parallel-file: PR017V01_150413_Par.s2p
# MHz S MA R 50
!  Freq-MHz   S11-mag  S11-arg   S21-mag  S21-arg   S12-mag  S12-arg   S22-mag  S22-arg
         40   0.88951    -7.05    9.6834   173.67  0.010029    86.13   0.99334    -4.26
         50   0.88741    -8.83    9.5988   172.33  0.012627    85.07   0.99229    -5.40
         60   0.88424   -10.56    9.5912   170.46   0.01512    83.67   0.98846    -6.49
         70   0.88145   -12.32    9.5797   169.02  0.017556    82.75   0.98515    -7.53
         80   0.87782   -14.05    9.5203   167.42  0.020006    81.82   0.98193    -8.59
         90   0.87421   -15.71    9.4209   165.93  0.022363    80.75   0.97767    -9.63
        100   0.86987   -17.45    9.4076   164.48  0.024711    79.88   0.97308   -10.65
        120   0.85976   -20.92    9.3612   161.58  0.029345    77.98   0.96396   -12.64
        140   0.84929   -24.21    9.2339   158.78  0.033778    76.21   0.95239   -14.56
        160   0.83823   -27.47    9.0685   156.19  0.038229    74.36   0.94153   -16.41
        180   0.82523   -30.63    8.9053   153.43  0.042332    72.65   0.92716   -18.26
        200   0.81255   -33.76    8.7587   150.99  0.046268    71.08   0.91332   -19.98
        220   0.79815   -36.93    8.6742   148.40  0.049977    69.76   0.89878   -21.56
        240   0.78304   -39.99    8.5308   145.93    0.0536    68.27   0.88503   -23.13
        260   0.76919   -42.84    8.3478   143.56  0.057032    66.92   0.87049   -24.63
        280   0.75511   -45.63    8.1727   141.39  0.060286    65.66   0.85587   -26.07
        300   0.73947   -48.54    8.0282   139.16  0.063303    64.53   0.83994   -27.37
        320   0.72374   -51.42    7.9038   136.99  0.066271    63.35   0.82518   -28.69
        340   0.70844   -54.05     7.739   134.95  0.069009    62.31   0.81029   -29.88
        360    0.6945   -56.63    7.5753   132.98  0.071726    61.31   0.79687   -31.01
        380   0.67985   -59.08    7.4021   131.07  0.074161    60.38    0.7816   -32.12
        400     0.665   -61.59    7.2608   129.21  0.076595    59.59   0.76841   -33.03
        420   0.65057   -64.11    7.1184   127.35  0.078916    58.77   0.75513   -34.04
        433   0.64117   -65.64    7.0166   126.24  0.080336    58.29   0.74699   -34.59
        440   0.63642   -66.50    6.9683   125.63  0.081101    58.01   0.74225   -34.94
        460     0.623   -68.77    6.8184   123.97  0.083159    57.29    0.7301   -35.86
        480    0.6106   -71.02    6.6683   122.37  0.085105    56.64   0.71695   -36.68
        500   0.59661   -73.28    6.5367   120.76  0.087012    56.02   0.70535   -37.46
        550   0.56504   -78.76    6.2156   116.93  0.091115    54.69   0.67507   -39.29
        600   0.53759   -83.69    5.9047   113.52  0.095133    53.68   0.65015   -40.84
        650   0.51247   -88.40    5.6004   110.39  0.098915    52.81   0.62807   -42.22
        700   0.48847   -93.00    5.3399   107.38   0.10213    52.16    0.6063   -43.51
        750   0.46793   -97.31    5.0831   104.64   0.10535    51.67   0.58716   -44.53
        800   0.44841  -101.57    4.8592   102.03    0.1084    51.31   0.57002   -45.56
        850   0.43028  -105.75    4.6466    99.52   0.11128    51.02   0.55355   -46.50
        900   0.41343  -109.76    4.4509    97.19    0.1142    50.81   0.54035   -47.35
        950    0.3994  -113.55    4.2717    94.96   0.11675    50.81   0.52624   -48.23
       1000   0.38613  -117.24    4.1046    92.82   0.11945    50.80   0.51475   -48.94
       1050   0.37406  -120.93    3.9445    90.80   0.12205    50.92   0.50327   -49.62
       1100   0.36344  -124.53    3.8011    88.86   0.12475    51.01   0.49362   -50.32
       1150   0.35363  -128.11    3.6664    86.98   0.12753    51.05   0.48516   -50.96
       1200   0.34412  -131.49    3.5415    85.17    0.1301    51.27   0.47689   -51.69
       1250   0.33623  -134.82    3.4242    83.41   0.13288    51.45   0.46978   -52.36
       1300   0.32887  -137.98    3.3162    81.74   0.13553    51.69   0.46315   -52.98
       1350   0.32236  -141.22     3.214    80.10   0.13829    51.97   0.45657   -53.64
       1400   0.31701  -144.55    3.1191    78.50   0.14104    52.19    0.4505   -54.28
       1450   0.31132  -147.62    3.0288    76.94    0.1439    52.48   0.44517   -54.89
       1500   0.30705  -150.83    2.9432    75.40   0.14681    52.69   0.44024   -55.63
       1550   0.30216  -153.62    2.8645    73.91   0.14979    52.95   0.43605   -56.29
       1600   0.29871  -156.57    2.7899    72.51   0.15275    53.27   0.43218   -56.97
       1650   0.29562  -159.45    2.7196    71.10   0.15585    53.54   0.42843   -57.65
       1700   0.29292  -162.27    2.6524    69.70   0.15904    53.88   0.42446   -58.27
       1750   0.29103  -165.15    2.5894    68.34   0.16217    54.07   0.42124   -58.97
       1800   0.28988  -167.96    2.5297    66.98   0.16541    54.32   0.41756   -59.73
       1850   0.28757  -170.50     2.473    65.66    0.1688    54.54   0.41594   -60.44
       1900   0.28626  -173.11    2.4174    64.37   0.17219    54.71   0.41363   -61.35
       1950   0.28433  -175.79    2.3657    63.12   0.17564    54.93   0.41104   -62.02
       2000    0.2851  -178.14    2.3159    61.89   0.17912    55.14   0.40926   -62.75
       2050   0.28469   179.34    2.2675    60.71    0.1825    55.35   0.40628   -63.49
       2100   0.28587   177.02    2.2237    59.53   0.18623    55.58   0.40413   -64.25
       2150   0.28605   174.39     2.183    58.38   0.19011    55.74   0.40313   -65.14
       2200   0.28593   172.09    2.1452    57.20    0.1941    55.86   0.40089   -66.00
       2250   0.28492   169.88    2.1075    55.99   0.19796    55.92   0.40136   -66.80
       2300    0.2863   167.57    2.0681    54.88   0.20192    56.01   0.39961   -67.68
       2350   0.28891   165.45    2.0311    53.78    0.2055    56.09   0.39806   -68.50
       2400   0.29018   163.47    1.9972    52.70   0.20955    56.19   0.39734   -69.40
       2450   0.29145   161.25    1.9646    51.59   0.21357    56.23   0.39539   -70.33
       2500   0.29189   159.25    1.9331    50.52   0.21771    56.31   0.39558   -71.23
       2600   0.29553   155.38    1.8744    48.45   0.22634    56.38   0.39409   -73.28
       2700   0.30266   151.66    1.8201    46.47   0.23528    56.44   0.39184   -75.02
       2800   0.30554   147.77    1.7696    44.44   0.24451    56.35   0.39173   -76.99
       2900   0.31053   144.05    1.7239    42.49   0.25387    56.23   0.39072   -78.99
       3000   0.31726   140.62    1.6811    40.59   0.26375    56.06    0.3893   -80.86
       3100   0.32069   137.36    1.6398    38.65   0.27387    55.72   0.38978   -82.98
       3200   0.32502   134.27    1.5999    36.84   0.28412    55.35   0.39066   -85.08
       3300   0.33306   131.43     1.564    35.04   0.29438    55.03   0.39062   -87.15
       3400   0.33796   128.44    1.5288    33.28   0.30468    54.50   0.39118   -89.50
       3500   0.34256   125.51    1.4966    31.55   0.31531    53.90   0.39199   -91.92
       3600   0.35163   122.90    1.4669    29.91   0.32614    53.44   0.39197   -93.89
       3700    0.3574   120.25    1.4374    28.23   0.33724    52.80    0.3919   -96.25
       3800   0.36254   117.45    1.4095    26.58   0.34832    52.04   0.39317   -98.92
       3900   0.37173   114.97    1.3832    25.02   0.35966    51.35   0.39364  -101.08
       4000   0.37725   112.67    1.3587    23.47   0.37102    50.61   0.39419  -103.29
       4100   0.38239   110.12    1.3342    21.86   0.38225    49.71   0.39514  -106.02
       4200   0.39138   107.82    1.3116    20.35   0.39379    48.86   0.39624  -108.48
       4300   0.39908   105.67    1.2899    18.89    0.4054    48.00   0.39693  -110.82
       4400   0.40245   103.25    1.2666    17.45   0.41645    46.98    0.3976  -113.44
       4500   0.41247   101.17    1.2483    16.02   0.42827    46.03   0.39977  -115.95
       4600   0.41934    99.22    1.2285    14.65   0.43965    45.03   0.40057  -118.35
       4700   0.42175    97.13    1.2082    13.29   0.45048    43.96   0.40113  -121.01
       4800   0.43163    95.13    1.1914    12.02   0.46223    42.92   0.40252  -123.59
       4900   0.43916    93.19    1.1735    10.70   0.47351    41.84   0.40444  -126.16
       5000   0.44167    91.32    1.1561     9.41   0.48396    40.72   0.40586  -128.93
       5200   0.45782    87.76    1.1256     7.05   0.50667    38.41   0.40751  -133.73
       5400   0.46719    84.17    1.0941     4.66   0.52696    36.03   0.41158  -139.37
       5600   0.47777    80.71    1.0659     2.47   0.54687    33.60   0.41412  -144.56
       5800   0.49401    77.63    1.0415     0.25   0.56636    31.04   0.41856  -149.67
       6000   0.50093    74.53    1.0153    -1.71   0.58293    28.62   0.42053  -155.30

