! Filename:  P:\Prog\Test\Noise\ATS_data\Testdata_Net\03 Spar\BFU550A_APG2013_35_C05_08p0V_025mA_SP_CM01_D.s2p
! Date/Time: Tue 16/Apr/2013 15:10:22
! BFU550A_APG2013_35_C05_08p0V_1to35mA_SP_CM01_Bias7_R.s2p
! MDIF S-parameter v. bias file
! BFU550A_APG2013_35_C05_08p0V_1to35mA_SP_CM01
! Date/time Mon Apr 15 16:50:27 2013
! VAR V_out= 8.0010
! VAR I_out= 25.0000
! VAR V_in= 0.8031
! VAR I_in= 0.2576
! Device data file deembeded for feedlines and parallel
! Original file: \03 Spar\BFU550A_APG2013_35_C05_08p0V_025mA_SP_CM01_R.s2p
! Feed-files: PR017V01_150413_Feed1.s2p, PR017V01_150413_Feed2.s2p
! Parallel-file: PR017V01_150413_Par.s2p
# MHz S MA R 50
!  Freq-MHz   S11-mag  S11-arg   S21-mag  S21-arg   S12-mag  S12-arg   S22-mag  S22-arg
         40    0.4962   -23.57    39.782   161.19  0.007464    82.06   0.93936   -12.59
         50   0.48127   -29.28    38.605   157.02 0.0091758    79.76   0.91716   -15.65
         60   0.46733   -34.46    37.438   152.79  0.010846    78.29   0.89346   -18.34
         70   0.45493   -39.60    36.272   149.21  0.012327    76.72   0.86752   -20.76
         80   0.43991   -44.62    35.047   145.56  0.013774    75.48   0.84105   -22.96
         90   0.42397   -49.08    33.681   142.23  0.015139    74.42    0.8139   -24.86
        100   0.41053   -53.34    32.431   139.24  0.016425    73.55   0.78784   -26.61
        120   0.38176   -61.63    30.021   133.70  0.018804    72.23   0.73751   -29.52
        140   0.35717   -68.63    27.696   129.06  0.021023    71.45   0.69133   -31.66
        160    0.3338   -75.26    25.548   125.01  0.023164    70.89   0.65075   -33.27
        180   0.31426   -81.33    23.679   121.50  0.025187    70.59   0.61403   -34.49
        200    0.2965   -86.62    21.989   118.43  0.027111    70.51   0.58268   -35.32
        220    0.2823   -91.55    20.566   115.68  0.029043    70.72     0.556   -35.96
        240   0.26813   -96.20     19.23   113.27   0.03089    70.87   0.53173   -36.33
        260    0.2569  -100.67    18.061   111.06  0.032746    71.08   0.51104   -36.63
        280   0.24721  -104.67    17.006   109.16   0.03463    71.27   0.49286   -36.76
        300   0.23827  -108.54    16.049   107.38  0.036513    71.56   0.47692   -36.77
        320   0.23087  -111.97    15.194   105.82  0.038381    71.77    0.4626   -36.82
        340   0.22326  -115.32    14.421   104.30  0.040259    71.99   0.44993   -36.70
        360   0.21819  -118.58    13.726   102.96  0.042141    72.23   0.43901   -36.67
        380   0.21232  -121.64    13.078   101.67  0.044017    72.43   0.42851   -36.58
        400   0.20744  -124.45    12.499   100.48  0.045895    72.70   0.41994   -36.38
        420   0.20384  -127.28    11.963    99.33  0.047835    72.86   0.41176   -36.32
        433   0.20136  -129.18    11.643    98.65  0.049059    72.96   0.40713   -36.19
        440   0.20017  -130.13    11.472    98.27  0.049737    73.00   0.40459   -36.16
        460   0.19707  -132.38    11.013    97.29   0.05163    73.18   0.39821   -36.13
        480    0.1946  -134.96    10.593    96.33  0.053544    73.32   0.39183   -36.01
        500   0.19147  -137.29    10.201    95.43  0.055432    73.40   0.38671   -35.92
        550   0.18601  -143.07    9.3563    93.21   0.06015    73.68   0.37323   -35.63
        600   0.18165  -147.82    8.6308    91.32  0.065033    73.87   0.36481   -35.59
        650   0.17913  -152.57    8.0082    89.54    0.0699    73.95   0.35738   -35.66
        700   0.17655  -156.75    7.4692    87.86  0.074726    74.01   0.35112   -35.71
        750   0.17523  -160.76    6.9969    86.32  0.079589    74.03   0.34563   -35.78
        800   0.17428  -164.36    6.5866    84.84  0.084462    73.97   0.34146   -36.12
        850   0.17421  -168.13    6.2196    83.40  0.089332    73.89   0.33657   -36.39
        900   0.17335  -171.57    5.8921    82.05  0.094229    73.81   0.33332   -36.74
        950   0.17319  -174.55    5.6002    80.72  0.099138    73.66    0.3307   -37.25
       1000   0.17278  -177.53    5.3353    79.42   0.10405    73.52   0.32823   -37.61
       1050   0.17352   179.63    5.0923    78.20   0.10898    73.32   0.32609   -38.10
       1100   0.17451   176.83    4.8742    76.99   0.11391    73.09   0.32415   -38.68
       1150   0.17592   174.24     4.674    75.82   0.11883    72.86   0.32181   -39.20
       1200   0.17636   171.68    4.4906    74.67   0.12377    72.60   0.32054   -39.93
       1250   0.17732   169.34    4.3215    73.53   0.12872    72.34   0.31909   -40.59
       1300   0.17769   167.10    4.1666    72.43   0.13368    72.06   0.31841   -41.24
       1350   0.17895   164.95    4.0228    71.34   0.13859    71.74   0.31719   -42.02
       1400   0.18116   162.69    3.8904    70.26   0.14354    71.44    0.3155   -42.68
       1450   0.18228   160.57    3.7665    69.20    0.1485    71.12   0.31464   -43.42
       1500   0.18444   158.45     3.648    68.14   0.15347    70.78   0.31329   -44.33
       1550   0.18518   156.60    3.5399    67.10   0.15845    70.43   0.31268   -45.12
       1600   0.18639   154.76    3.4377    66.12   0.16339    70.09   0.31244   -45.98
       1650   0.18788   152.95    3.3421    65.12    0.1684    69.74   0.31179   -46.81
       1700   0.18994   151.29    3.2528    64.12   0.17336    69.38   0.31141   -47.62
       1750   0.19189   149.45     3.169    63.14   0.17823    69.00   0.31018   -48.52
       1800   0.19528   147.83    3.0907    62.15   0.18319    68.63    0.3088   -49.44
       1850   0.19581   146.23    3.0154    61.16    0.1882    68.25    0.3092   -50.37
       1900    0.1974   144.61    2.9419    60.17   0.19317    67.81   0.30894   -51.52
       1950   0.19929   142.86    2.8739    59.25   0.19806    67.43   0.30832   -52.38
       2000   0.20176   141.79    2.8085    58.32   0.20291    67.03   0.30819   -53.33
       2050   0.20411   140.34    2.7462    57.44    0.2077    66.67    0.3068   -54.24
       2100   0.20721   139.28    2.6891    56.57   0.21268    66.33   0.30579   -55.20
       2150   0.21066   137.54    2.6364    55.68    0.2179    65.95   0.30574   -56.31
       2200   0.21227   136.00    2.5885    54.77   0.22309    65.48   0.30472   -57.32
       2250   0.21271   134.54    2.5389    53.80   0.22807    65.03   0.30617   -58.36
       2300   0.21537   133.24    2.4888    52.90    0.2329    64.56   0.30552   -59.43
       2350   0.21912   132.25     2.442    52.04   0.23767    64.17   0.30425   -60.38
       2400   0.22138   131.23    2.3984    51.20   0.24253    63.75   0.30436   -61.45
       2450   0.22449   129.85    2.3572    50.31   0.24738    63.33   0.30291   -62.56
       2500   0.22578   128.47    2.3174    49.45   0.25246    62.92   0.30349   -63.65
       2600   0.23086   126.32    2.2427    47.78   0.26224    62.04   0.30308   -66.06
       2700   0.23904   124.56     2.175    46.18   0.27227    61.26   0.30134   -68.09
       2800   0.24395   121.82    2.1118    44.49   0.28245    60.36   0.30173   -70.36
       2900   0.25004   119.43    2.0547    42.86   0.29245    59.48   0.30087   -72.59
       3000   0.25777   117.44    2.0024    41.25   0.30279    58.58   0.29947   -74.58
       3100   0.26065   115.25     1.951    39.58   0.31286    57.58   0.30047   -76.94
       3200   0.26536   113.28    1.9022    38.01    0.3229    56.61   0.30152   -79.29
       3300   0.27259   111.63    1.8583    36.46   0.33298    55.68   0.30063   -81.38
       3400   0.27775   109.81    1.8156    34.93   0.34264    54.67   0.30116   -84.04
       3500   0.28198   107.86     1.776    33.40    0.3523    53.66   0.30235   -86.75
       3600   0.29069   106.32    1.7405    31.94   0.36231    52.78   0.30152   -88.75
       3700   0.29636   104.54    1.7057    30.43   0.37226    51.79   0.30099   -91.32
       3800   0.30113   102.47    1.6721    28.93   0.38204    50.72   0.30206   -94.28
       3900    0.3096   101.02    1.6418    27.49   0.39204    49.75   0.30217   -96.41
       4000   0.31409    99.48    1.6123    26.08    0.4018    48.75   0.30221   -98.73
       4100   0.31964    97.68    1.5836    24.58   0.41124    47.67     0.303  -101.68
       4200   0.32781    96.17    1.5573    23.17   0.42105    46.63   0.30356  -104.19
       4300   0.33438    94.70    1.5323    21.78   0.43087    45.59   0.30346  -106.51
       4400    0.3379    92.95    1.5054    20.39   0.43985    44.50   0.30443  -109.34
       4500   0.34752    91.54    1.4838    19.01   0.44974    43.44   0.30592  -111.87
       4600   0.35347    90.23    1.4615    17.69   0.45908    42.37   0.30674  -114.30
       4700   0.35551    88.68    1.4384    16.36   0.46784    41.28   0.30726  -117.08
       4800   0.36516    87.29     1.419    15.09   0.47747    40.21   0.30815  -119.65
       4900   0.37229    85.94    1.3983    13.75    0.4866    39.10   0.30948  -122.26
       5000   0.37439    84.60    1.3786    12.50   0.49505    38.00   0.31073  -125.16
       5200    0.3903    82.09    1.3436    10.04    0.5135    35.78    0.3129  -129.78
       5400   0.40017    79.44    1.3081     7.56   0.52961    33.52   0.31647  -135.59
       5600   0.41107    76.84    1.2759     5.23    0.5459    31.27   0.31961  -140.86
       5800   0.42774    74.59    1.2474     2.83    0.5618    28.93   0.32505  -145.84
       6000   0.43635    72.17    1.2171     0.66   0.57526    26.73   0.32732  -151.68

