! Filename:  P:\Prog\Test\Noise\ATS_data\Testdata_Net\03 Spar\BFU550A_APG2013_35_C05_12p0V_003mA_SP_CM01_D.s2p
! Date/Time: Tue 16/Apr/2013 15:10:23
! BFU550A_APG2013_35_C05_12p0V_1to35mA_SP_CM01_Bias3_R.s2p
! MDIF S-parameter v. bias file
! BFU550A_APG2013_35_C05_12p0V_1to35mA_SP_CM01
! Date/time Mon Apr 15 17:55:46 2013
! VAR V_out= 12.0000
! VAR I_out= 3.0050
! VAR V_in= 0.7975
! VAR I_in= 0.0245
! Device data file deembeded for feedlines and parallel
! Original file: \03 Spar\BFU550A_APG2013_35_C05_12p0V_003mA_SP_CM01_R.s2p
! Feed-files: PR017V01_150413_Feed1.s2p, PR017V01_150413_Feed2.s2p
! Parallel-file: PR017V01_150413_Par.s2p
# MHz S MA R 50
!  Freq-MHz   S11-mag  S11-arg   S21-mag  S21-arg   S12-mag  S12-arg   S22-mag  S22-arg
         40   0.91096    -6.55    9.5129   174.09 0.0093776    84.45   0.99216    -3.67
         50   0.90722    -8.21    9.4325   172.47  0.011787    83.83   0.99217    -4.87
         60   0.90465    -9.75    9.3922   170.66   0.01408    83.02   0.98805    -5.95
         70   0.90258   -11.40    9.3896   169.52  0.016355    82.18   0.98412    -6.91
         80   0.89906   -13.04    9.3535   167.96  0.018615    81.47   0.98091    -7.86
         90   0.89543   -14.57    9.2426   166.47  0.020831    80.54   0.97738    -8.79
        100   0.89178   -16.18    9.2308   165.20  0.023038    79.76    0.9735    -9.73
        120   0.88198   -19.44    9.2243   162.35  0.027391    78.09   0.96587   -11.60
        140   0.87239   -22.47    9.0928   159.77  0.031552    76.47   0.95481   -13.38
        160   0.86168   -25.54    8.9503   157.23  0.035753    74.73   0.94562   -15.07
        180   0.84969   -28.48    8.8011   154.64  0.039663    73.16   0.93268   -16.84
        200   0.83707   -31.41    8.6613   152.21  0.043365    71.66   0.91973   -18.45
        220   0.82377   -34.42     8.605   149.77  0.046921    70.49   0.90674   -19.92
        240   0.80851   -37.29     8.475   147.33  0.050411    69.04   0.89469   -21.42
        260   0.79538   -39.97    8.3067   145.03  0.053692    67.72   0.88109   -22.85
        280   0.78205   -42.58    8.1341   142.95  0.056799    66.48   0.86768   -24.21
        300   0.76634   -45.31    8.0085   140.74  0.059725    65.42    0.8528   -25.45
        320   0.75069   -48.04    7.9001   138.63   0.06258    64.29   0.83922   -26.69
        340   0.73544   -50.54    7.7468   136.60  0.065244    63.25   0.82527   -27.82
        360    0.7217   -52.98    7.5951   134.71  0.067941    62.28   0.81303   -28.90
        380   0.70701   -55.32    7.4264   132.79  0.070262    61.32   0.79847   -29.99
        400   0.69213   -57.71    7.2961   130.96  0.072584    60.60   0.78552   -30.83
        420   0.67756   -60.10     7.164   129.12  0.074904    59.78   0.77327   -31.79
        433   0.66821   -61.54    7.0708   128.02  0.076302    59.27   0.76558   -32.33
        440   0.66292   -62.37    7.0257   127.39  0.077046    59.01   0.76106   -32.67
        460   0.64953   -64.50    6.8805   125.77  0.079084    58.29   0.74941   -33.55
        480   0.63672   -66.64    6.7368   124.17  0.080979    57.62   0.73683   -34.34
        500   0.62243   -68.79    6.6126   122.56  0.082865    57.01    0.7257   -35.09
        550   0.58908   -74.02     6.307   118.72  0.086915    55.65   0.69667   -36.86
        600   0.56042   -78.74    6.0065   115.31  0.090883    54.62   0.67253   -38.36
        650   0.53375   -83.21     5.707   112.17  0.094564    53.71   0.65089   -39.71
        700   0.50761   -87.61    5.4518   109.12  0.097712    53.03   0.62968   -40.95
        750   0.48549   -91.75    5.1963   106.38   0.10087    52.52   0.61095   -41.94
        800   0.46414   -95.84    4.9759   103.74   0.10381    52.15   0.59396   -42.93
        850   0.44387   -99.85    4.7638   101.21   0.10662    51.84   0.57767   -43.84
        900   0.42569  -103.65    4.5686    98.86   0.10942    51.60    0.5645   -44.67
        950   0.40958  -107.32    4.3893    96.59   0.11189    51.57   0.55057   -45.52
       1000   0.39489  -110.83    4.2194    94.45   0.11448    51.55   0.53923   -46.20
       1050   0.38108  -114.44    4.0584    92.40   0.11694    51.65   0.52786   -46.86
       1100   0.36862  -117.96    3.9125    90.44   0.11955    51.75   0.51823   -47.53
       1150   0.35718  -121.42     3.776    88.55   0.12216    51.79   0.50975   -48.15
       1200   0.34628  -124.72      3.65    86.73   0.12465    52.03   0.50144   -48.84
       1250   0.33688  -127.99      3.53    84.96   0.12728    52.21   0.49428   -49.46
       1300   0.32798  -131.12    3.4202    83.28   0.12981    52.46   0.48776   -50.06
       1350   0.32006  -134.30    3.3158    81.62    0.1324    52.74   0.48112   -50.71
       1400   0.31319  -137.63    3.2187    80.02   0.13502    53.00   0.47504   -51.29
       1450   0.30637  -140.72    3.1264    78.45   0.13772    53.29   0.46983   -51.88
       1500    0.3005  -143.93    3.0382    76.90   0.14049    53.54   0.46477   -52.59
       1550   0.29484  -146.80    2.9576    75.41   0.14332    53.81   0.46054   -53.22
       1600   0.28999  -149.75    2.8808    74.00   0.14614    54.15   0.45675   -53.86
       1650   0.28586  -152.64    2.8087    72.59   0.14912    54.45   0.45295   -54.50
       1700    0.2824  -155.57    2.7401    71.19   0.15215    54.81   0.44908   -55.09
       1750   0.27882  -158.54    2.6748    69.82    0.1551    55.04   0.44582   -55.76
       1800   0.27719  -161.56    2.6137    68.45   0.15822    55.32   0.44214   -56.48
       1850   0.27377  -164.12     2.555    67.13   0.16145    55.57   0.44049   -57.16
       1900   0.27161  -166.90    2.4978    65.82   0.16472    55.79   0.43813   -58.03
       1950   0.26913  -169.60    2.4442    64.58   0.16801    56.04   0.43555   -58.67
       2000   0.26918  -172.19    2.3928    63.35    0.1713    56.28   0.43376   -59.36
       2050   0.26807  -174.73     2.343    62.17    0.1746    56.53   0.43068   -60.06
       2100   0.26853  -177.30    2.2979    61.00   0.17818    56.80   0.42858   -60.77
       2150   0.26805   179.94     2.256    59.84   0.18198    57.00   0.42755   -61.62
       2200   0.26752   177.49    2.2173    58.67    0.1858    57.15   0.42523   -62.44
       2250   0.26597   175.23    2.1781    57.46   0.18953    57.25    0.4258   -63.20
       2300   0.26644   172.68    2.1372    56.32   0.19335    57.37   0.42404   -64.06
       2350   0.26853   170.41    2.0993    55.21   0.19686    57.49   0.42247   -64.84
       2400    0.2695   168.29     2.064    54.14   0.20079    57.63   0.42172   -65.70
       2450   0.27025   165.88    2.0302    53.04   0.20468    57.71   0.41968   -66.59
       2500   0.27057   163.69    1.9977    51.97   0.20875    57.84   0.41982   -67.43
       2600   0.27366   159.64    1.9369    49.90   0.21718    57.96   0.41821   -69.40
       2700   0.28031   155.55    1.8808    47.91   0.22596    58.09   0.41604   -71.07
       2800   0.28267   151.43    1.8287    45.87   0.23508    58.07     0.416   -72.94
       2900   0.28707   147.47    1.7812    43.91   0.24429    58.01   0.41479   -74.86
       3000   0.29382   143.78    1.7368    42.00   0.25403    57.88   0.41341   -76.66
       3100   0.29629   140.36    1.6941    40.06   0.26402    57.61   0.41403   -78.69
       3200   0.30111   137.04    1.6527    38.24    0.2742    57.29   0.41483   -80.70
       3300    0.3091   133.95    1.6155    36.41   0.28443    57.02   0.41454   -82.71
       3400   0.31421   130.94    1.5799    34.67   0.29477    56.53   0.41519   -84.99
       3500   0.31849   127.87    1.5463    32.92   0.30544    55.98   0.41602   -87.30
       3600   0.32773   125.13     1.515    31.25   0.31627    55.55    0.4158   -89.21
       3700   0.33392   122.35    1.4848    29.57   0.32743    54.95   0.41565   -91.50
       3800   0.33902   119.44    1.4558    27.90   0.33861    54.21   0.41672   -94.10
       3900   0.34831   116.85     1.429    26.30    0.3501    53.55   0.41732   -96.18
       4000   0.35385   114.41    1.4029    24.75   0.36153    52.83   0.41772   -98.32
       4100    0.3595   111.79     1.378    23.11   0.37299    51.96   0.41838  -100.97
       4200   0.36874   109.50    1.3543    21.58   0.38469    51.11   0.41932  -103.38
       4300   0.37607   107.25    1.3319    20.10   0.39657    50.26   0.42004  -105.66
       4400   0.37988   104.75    1.3082    18.65   0.40785    49.26   0.42052  -108.20
       4500   0.39026   102.59    1.2886    17.17    0.4199    48.32   0.42229  -110.69
       4600   0.39722   100.59    1.2683    15.78   0.43153    47.33   0.42319  -113.05
       4700   0.40025    98.46    1.2472    14.40    0.4427    46.28   0.42352  -115.62
       4800   0.41013    96.37    1.2298    13.12   0.45478    45.23   0.42452  -118.15
       4900   0.41788    94.40    1.2108    11.76   0.46639    44.15   0.42627  -120.74
       5000   0.42082    92.55    1.1929    10.45   0.47724    43.03   0.42754  -123.43
       5200    0.4376    88.87    1.1613     8.04   0.50078    40.72   0.42863  -128.16
       5400   0.44816    85.26    1.1283     5.58   0.52195    38.31   0.43207  -133.78
       5600   0.45906    81.72    1.0989     3.34   0.54287    35.85   0.43395  -138.92
       5800    0.4757    78.58    1.0734     1.05   0.56337    33.26   0.43776  -144.05
       6000   0.48348    75.39    1.0455    -0.95   0.58084    30.80   0.43863  -149.67

