! Filename:  P:\Prog\Test\Noise\ATS_data\Testdata_Net\03 Spar\BFU550A_APG2013_35_C05_12p0V_002mA_SP_CM01_D.s2p
! Date/Time: Tue 16/Apr/2013 15:10:18
! BFU550A_APG2013_35_C05_12p0V_1to35mA_SP_CM01_Bias2_R.s2p
! MDIF S-parameter v. bias file
! BFU550A_APG2013_35_C05_12p0V_1to35mA_SP_CM01
! Date/time Mon Apr 15 17:55:46 2013
! VAR V_out= 12.0010
! VAR I_out= 1.9900
! VAR V_in= 0.7916
! VAR I_in= 0.0158
! Device data file deembeded for feedlines and parallel
! Original file: \03 Spar\BFU550A_APG2013_35_C05_12p0V_002mA_SP_CM01_R.s2p
! Feed-files: PR017V01_150413_Feed1.s2p, PR017V01_150413_Feed2.s2p
! Parallel-file: PR017V01_150413_Par.s2p
# MHz S MA R 50
!  Freq-MHz   S11-mag  S11-arg   S21-mag  S21-arg   S12-mag  S12-arg   S22-mag  S22-arg
         40   0.94196    -5.30    6.5914   175.40 0.0095065    85.56   0.99513    -2.84
         50   0.93897    -6.67     6.553   174.02  0.011936    85.08   0.99491    -3.78
         60   0.93725    -7.91    6.5269   172.37  0.014349    84.12   0.99312    -4.66
         70   0.93642    -9.26    6.5359   171.53  0.016673    83.35    0.9904    -5.43
         80   0.93435   -10.60     6.523   170.24  0.019023    82.76   0.98847    -6.17
         90   0.93187   -11.84    6.4507   168.96  0.021309    81.90   0.98644    -6.92
        100   0.92962   -13.15     6.451   167.95  0.023625    81.30   0.98413    -7.67
        120    0.9234   -15.86    6.4834   165.56  0.028166    79.78    0.9799    -9.18
        140   0.91733   -18.39    6.4185   163.41  0.032585    78.35   0.97285   -10.64
        160   0.91058   -20.93    6.3498   161.26  0.037064    76.77   0.96757   -12.04
        180   0.90265   -23.41    6.2695   159.06  0.041291    75.32    0.9594   -13.53
        200   0.89427   -25.87    6.2005   156.96  0.045393    73.88   0.95111   -14.91
        220   0.88543   -28.42    6.2011   154.86  0.049316    72.76   0.94237   -16.18
        240   0.87488   -30.90     6.148   152.70  0.053253    71.33   0.93474   -17.50
        260   0.86556   -33.24    6.0579   150.64  0.056987    70.03   0.92569   -18.78
        280   0.85682   -35.50     5.957   148.79  0.060608    68.79   0.91666   -20.02
        300   0.84498   -37.88       5.9   146.81  0.064031    67.61   0.90582   -21.20
        320    0.8336   -40.34    5.8674   144.92  0.067417    66.39     0.896   -22.37
        340   0.82225   -42.56    5.7901   143.04  0.070599    65.27   0.88576   -23.46
        360   0.81182   -44.77    5.7105   141.27  0.073782    64.21   0.87696   -24.50
        380   0.80053   -46.85    5.6083   139.45  0.076675    63.10   0.86567   -25.60
        400   0.78903   -49.06    5.5491   137.76  0.079469    62.20   0.85544   -26.46
        420   0.77686   -51.27    5.4878   135.97  0.082309    61.22   0.84603   -27.45
        433   0.76903   -52.63    5.4339   134.91   0.08404    60.61   0.83992   -28.02
        440   0.76504   -53.39    5.4123   134.31  0.084946    60.25   0.83629   -28.38
        460   0.75374   -55.44    5.3344   132.72  0.087462    59.35   0.82696   -29.31
        480   0.74301   -57.41    5.2453   131.15  0.089805    58.47   0.81623   -30.18
        500   0.73049   -59.49    5.1861   129.56  0.092125    57.65   0.80669   -31.00
        550   0.70074   -64.52    5.0102   125.70    0.0972    55.68   0.78136   -33.01
        600   0.67408   -69.14    4.8339   122.16   0.10193    54.05    0.7595   -34.79
        650   0.64884   -73.48    4.6348   118.89   0.10632    52.55   0.73945   -36.41
        700   0.62286   -77.90    4.4804   115.61   0.10991    51.22    0.7186   -37.97
        750   0.60001   -81.97    4.3033   112.68   0.11338    50.10   0.70019   -39.25
        800   0.57753   -86.09     4.159   109.79   0.11643    49.15   0.68251   -40.53
        850   0.55567   -90.09    4.0111   107.00   0.11924    48.24   0.66562   -41.73
        900    0.5353   -93.89    3.8733   104.41     0.122    47.47   0.65204   -42.80
        950   0.51717   -97.61    3.7456   101.88   0.12393    46.93   0.63596   -43.95
       1000   0.50038  -101.13    3.6194    99.50   0.12615    46.42   0.62357   -44.88
       1050   0.48427  -104.71    3.4966    97.21   0.12798    46.11   0.61038   -45.77
       1100   0.46907  -108.21    3.3865    95.00   0.12987    45.81   0.59912   -46.65
       1150   0.45522  -111.67    3.2816    92.89   0.13188    45.48   0.59003   -47.44
       1200   0.44157  -115.00    3.1841    90.82   0.13336    45.42   0.57955   -48.33
       1250   0.42983  -118.24    3.0893    88.84   0.13513    45.34   0.57134   -49.09
       1300   0.41859  -121.39    3.0038    86.95   0.13654    45.38   0.56309   -49.88
       1350   0.40867  -124.57    2.9195    85.07   0.13802    45.53   0.55465   -50.64
       1400   0.39902  -127.89    2.8419    83.26   0.13952    45.63   0.54739   -51.37
       1450   0.39025  -130.94    2.7665    81.51   0.14105    45.85    0.5409   -52.06
       1500     0.382  -134.13    2.6946    79.76   0.14266    46.05   0.53466   -52.85
       1550   0.37423  -136.95    2.6286    78.09   0.14426    46.31   0.52926   -53.57
       1600   0.36734  -139.95    2.5654    76.53   0.14577    46.72   0.52395   -54.31
       1650    0.3615  -142.93    2.5054    74.95   0.14751    47.11   0.51901   -55.02
       1700   0.35584  -145.82    2.4483    73.39   0.14928    47.67   0.51348   -55.65
       1750   0.35065  -148.77    2.3933    71.86   0.15107    47.99   0.50972   -56.37
       1800   0.34693  -151.76    2.3419    70.33    0.1529    48.45   0.50512   -57.13
       1850   0.34267  -154.41    2.2923    68.88   0.15499    48.87   0.50294   -57.85
       1900   0.33879  -157.23    2.2432    67.44   0.15704    49.33   0.49961   -58.73
       1950   0.33473  -159.97    2.1976    66.07   0.15924    49.83   0.49631   -59.40
       2000   0.33326  -162.65    2.1541    64.70   0.16146    50.36   0.49371   -60.12
       2050   0.33072  -165.34    2.1108    63.41   0.16367    50.88   0.49008   -60.85
       2100   0.32967  -167.98    2.0721    62.10   0.16622    51.47   0.48743   -61.56
       2150   0.32767  -170.77    2.0362    60.82     0.169    51.97   0.48608   -62.43
       2200   0.32607  -173.19    2.0031    59.54   0.17189    52.44   0.48323   -63.26
       2250   0.32367  -175.61    1.9688    58.23   0.17471    52.83   0.48353   -64.03
       2300    0.3233  -178.29    1.9333    57.01   0.17781    53.35   0.48093   -64.89
       2350   0.32451   179.23    1.8995    55.79   0.18034    53.75   0.47969   -65.69
       2400   0.32428   176.98    1.8691    54.63   0.18365    54.26   0.47843   -66.55
       2450   0.32403   174.44    1.8398    53.43   0.18686    54.63   0.47622   -67.44
       2500   0.32365   172.17    1.8107    52.26   0.19015    55.10    0.4764   -68.30
       2600   0.32531   167.74    1.7572    50.03   0.19774    55.93   0.47397   -70.25
       2700   0.33028   163.31    1.7075    47.89   0.20576    56.69   0.47163   -71.93
       2800    0.3314   158.91    1.6613    45.71   0.21422    57.26   0.47147   -73.82
       2900   0.33511   154.69    1.6191    43.61   0.22317    57.74   0.47027   -75.76
       3000   0.34091   150.67    1.5787    41.59   0.23281    58.14   0.46881   -77.61
       3100   0.34299   146.93    1.5407    39.55   0.24299    58.33   0.46923   -79.66
       3200   0.34707   143.26    1.5036    37.63   0.25357    58.41   0.46994   -81.68
       3300   0.35453   139.81    1.4692    35.71   0.26426    58.55   0.46998   -83.79
       3400   0.35948   136.45    1.4367    33.88   0.27533    58.36   0.47054   -86.07
       3500   0.36295   133.03    1.4062    32.08   0.28704    58.04   0.47107   -88.35
       3600   0.37209   129.92    1.3772    30.37    0.2988    57.84   0.47117   -90.33
       3700   0.37792   126.82    1.3497    28.63   0.31109    57.41    0.4711   -92.65
       3800   0.38275   123.61    1.3231    26.91   0.32349    56.80   0.47228   -95.24
       3900   0.39164   120.72    1.2982    25.32   0.33624    56.25   0.47287   -97.40
       4000   0.39707   117.98    1.2737    23.76   0.34904    55.60   0.47329   -99.59
       4100   0.40238   115.11    1.2507    22.10   0.36204    54.76   0.47375  -102.24
       4200   0.41161   112.47    1.2287    20.57   0.37521    53.95   0.47485  -104.74
       4300   0.41895   109.92    1.2079    19.12   0.38858    53.11   0.47578  -107.11
       4400   0.42239   107.20    1.1857    17.68   0.40135    52.04   0.47561  -109.62
       4500   0.43255   104.70    1.1676    16.24   0.41489    51.09    0.4775  -112.19
       4600   0.43949   102.49    1.1486    14.89   0.42808    50.03   0.47816  -114.63
       4700   0.44156   100.14    1.1291    13.55   0.44073    48.90    0.4781  -117.20
       4800   0.45135    97.80    1.1128    12.35   0.45424    47.77   0.47887  -119.80
       4900   0.45924    95.61    1.0953    11.04   0.46739    46.63   0.48069  -122.48
       5000   0.46114    93.52    1.0787     9.80   0.47954    45.41   0.48158  -125.19
       5200   0.47709    89.43    1.0501     7.57   0.50566    42.86   0.48121  -130.05
       5400    0.4862    85.42    1.0201     5.31   0.52929    40.24   0.48407  -135.76
       5600   0.49555    81.54   0.99422     3.25   0.55197    37.53   0.48453  -140.95
       5800   0.51083    78.13   0.97198     1.18   0.57409    34.71   0.48659  -146.17
       6000   0.51635    74.71   0.94801    -0.58   0.59288    32.02   0.48629  -151.79

