! Filename:  P:\Prog\Test\Noise\ATS_data\Testdata_Net\03 Spar\BFU550A_APG2013_35_C05_08p0V_001mA_SP_CM01_D.s2p
! Date/Time: Tue 16/Apr/2013 15:10:18
! BFU550A_APG2013_35_C05_08p0V_1to35mA_SP_CM01_Bias1_R.s2p
! MDIF S-parameter v. bias file
! BFU550A_APG2013_35_C05_08p0V_1to35mA_SP_CM01
! Date/time Mon Apr 15 16:50:27 2013
! bias mode 1
! bias variable = I_out
! VAR bias_var= 1
! VAR V_out= 8.0000
! VAR I_out= 1.0000
! VAR V_in= 0.7806
! VAR I_in= 0.0099
! Device data file deembeded for feedlines and parallel
! Original file: \03 Spar\BFU550A_APG2013_35_C05_08p0V_001mA_SP_CM01_R.s2p
! Feed-files: PR017V01_150413_Feed1.s2p, PR017V01_150413_Feed2.s2p
! Parallel-file: PR017V01_150413_Par.s2p
# MHz S MA R 50
!  Freq-MHz   S11-mag  S11-arg   S21-mag  S21-arg   S12-mag  S12-arg   S22-mag  S22-arg
         40   0.96425    -3.99    3.4749   176.65 0.0097859    87.30   0.99793    -2.15
         50   0.96286    -5.06    3.4524   175.80  0.012366    86.60    0.9981    -2.72
         60   0.96221    -5.99    3.4516   174.23  0.014829    85.82   0.99734    -3.33
         70   0.96208    -7.02    3.4619   173.67  0.017252    85.22   0.99619    -3.88
         80   0.96117    -8.02    3.4642   172.62  0.019701    84.64   0.99547    -4.42
         90   0.95984    -8.99    3.4306   171.53  0.022066    83.86   0.99454    -4.97
        100     0.959    -9.99    3.4333   170.79  0.024502    83.24   0.99345    -5.51
        120   0.95616   -12.04    3.4585   169.03   0.02931    82.00   0.99161    -6.60
        140   0.95346   -13.98    3.4386   167.37  0.034006    80.75   0.98857    -7.66
        160   0.94989   -15.96     3.423   165.55  0.038835    79.39   0.98621    -8.72
        180   0.94646   -17.90    3.3929   163.83  0.043465    78.12   0.98233    -9.80
        200   0.94211   -19.85     3.372   162.10  0.048006    76.85   0.97886   -10.86
        220   0.93783   -21.82     3.387   160.44  0.052404    75.81   0.97459   -11.87
        240   0.93269   -23.79    3.3787   158.67  0.056836    74.57   0.97088   -12.88
        260   0.92796   -25.68    3.3471   156.97  0.061189    73.36   0.96671   -13.89
        280   0.92307   -27.54    3.3072   155.40  0.065419    72.19   0.96242   -14.89
        300   0.91707   -29.43    3.2927   153.70  0.069496    71.04   0.95685   -15.88
        320   0.91122   -31.41    3.2968   152.19  0.073538    69.91   0.95152   -16.85
        340   0.90486   -33.24    3.2763   150.53  0.077474    68.76   0.94609   -17.79
        360    0.8992   -35.09    3.2525   149.01  0.081411    67.71    0.9415   -18.68
        380   0.89268   -36.85    3.2097   147.34  0.085098    66.57   0.93509   -19.63
        400   0.88625   -38.71    3.1937   145.94  0.088715    65.59   0.92952   -20.44
        420   0.87944   -40.63    3.1848   144.34  0.092353    64.52   0.92408   -21.35
        433    0.8743   -41.75    3.1656   143.37  0.094622    63.86   0.92068   -21.86
        440   0.87228   -42.42    3.1611   142.83  0.095823    63.48   0.91867   -22.19
        460   0.86522   -44.21    3.1382   141.41  0.099207    62.46   0.91318   -23.07
        480   0.85837   -45.94    3.1022   139.90    0.1024    61.43   0.90652   -23.92
        500   0.85072   -47.77    3.0912   138.47   0.10557    60.47   0.90053   -24.72
        550   0.83128   -52.20    3.0337   134.85   0.11275    58.06   0.88395   -26.74
        600   0.81313   -56.46    2.9806   131.43   0.11953    55.89   0.86919   -28.62
        650   0.79495   -60.48    2.8944   128.16    0.1259    53.81    0.8555   -30.37
        700   0.77558   -64.67    2.8467   124.86   0.13115    51.77   0.83957   -32.16
        750    0.7576   -68.55    2.7676   121.80   0.13629    49.95   0.82544   -33.67
        800   0.73886   -72.55    2.7171   118.77   0.14075    48.19   0.81115   -35.24
        850   0.71953   -76.45    2.6546   115.74   0.14477    46.48   0.79708   -36.73
        900   0.70198   -80.17    2.5948   112.91   0.14877    44.92   0.78627   -38.04
        950    0.6855   -83.93    2.5408   110.12   0.15109    43.43   0.77062   -39.58
       1000   0.66929   -87.45    2.4791   107.47   0.15395    42.10   0.75966   -40.79
       1050   0.65331   -91.03    2.4183   104.85   0.15594    40.91   0.74654   -42.00
       1100   0.63797   -94.55    2.3644   102.33   0.15778    39.73   0.73532   -43.22
       1150   0.62396   -98.04    2.3107    99.91   0.16004    38.56   0.72767   -44.24
       1200   0.60874  -101.43    2.2629    97.49   0.16068    37.61   0.71581   -45.50
       1250   0.59589  -104.73    2.2113    95.17   0.16208    36.70   0.70799   -46.50
       1300   0.58303  -107.98    2.1688    92.95   0.16225    35.91   0.69836   -47.64
       1350   0.57144  -111.23    2.1202    90.75   0.16238    35.30   0.68843   -48.66
       1400   0.55997  -114.53     2.077    88.62   0.16254    34.61   0.68078   -49.67
       1450   0.54926  -117.66     2.032    86.54   0.16258    34.13   0.67349   -50.58
       1500   0.53907  -120.89    1.9901    84.47   0.16241    33.66   0.66632   -51.60
       1550   0.52934  -123.87    1.9522    82.50   0.16211    33.30   0.66016   -52.56
       1600   0.52075  -126.91    1.9151    80.65   0.16108    33.21   0.65278   -53.57
       1650   0.51262  -129.96    1.8788    78.78   0.16044    33.14   0.64646   -54.49
       1700   0.50493  -132.92    1.8436    76.93   0.15936    33.46   0.63823   -55.34
       1750   0.49782  -135.98    1.8082    75.13   0.15893    33.31   0.63496   -56.19
       1800   0.49156  -138.98    1.7756    73.32   0.15799    33.51   0.62928   -57.13
       1850   0.48536  -141.73    1.7433    71.61   0.15747    33.67   0.62695   -57.99
       1900   0.47993  -144.66    1.7118    69.96   0.15653    34.12   0.62196   -59.04
       1950   0.47387  -147.46    1.6815    68.34   0.15591    34.60   0.61806   -59.83
       2000   0.47034  -150.35     1.653    66.74   0.15505    35.31    0.6139   -60.69
       2050   0.46569  -153.14    1.6239    65.24   0.15426    36.04   0.60949   -61.56
       2100   0.46283  -155.87    1.5977    63.68   0.15382    36.90    0.6061   -62.40
       2150   0.45885  -158.68    1.5739    62.17   0.15356    37.73   0.60444   -63.38
       2200    0.4557  -161.30    1.5508    60.70    0.1535    38.71   0.60096   -64.33
       2250   0.45246  -163.92     1.528    59.20    0.1536    39.60   0.60082   -65.20
       2300   0.45036  -166.67    1.5023    57.83     0.154    40.98   0.59649   -66.17
       2350   0.44969  -169.35    1.4781    56.44   0.15363    41.83   0.59656   -67.11
       2400   0.44831  -171.84    1.4566    55.11   0.15452    43.25   0.59407   -68.05
       2450    0.4464  -174.45    1.4363    53.73   0.15548    44.42   0.59171   -69.02
       2500   0.44494  -176.86    1.4148    52.38   0.15628    45.73   0.59221   -70.01
       2600   0.44412   178.22    1.3761    49.89   0.16039    48.63   0.58802   -72.10
       2700   0.44633   173.33    1.3393    47.51   0.16566    51.36   0.58523   -73.96
       2800   0.44583   168.55    1.3049    45.09   0.17194    53.83   0.58497   -76.03
       2900    0.4473   163.96    1.2726    42.80   0.17967    56.15   0.58348   -78.18
       3000   0.45139   159.49    1.2416    40.60   0.18911    58.20   0.58173   -80.26
       3100   0.45275   155.20    1.2129    38.47   0.19994    59.86   0.58134   -82.47
       3200   0.45561   151.01    1.1841    36.47    0.2119    61.13   0.58136   -84.64
       3300   0.46156   147.01    1.1561    34.45    0.2243    62.41   0.58176   -87.05
       3400   0.46517   143.07    1.1307    32.59   0.23789    63.00   0.58183   -89.46
       3500   0.46771   139.19    1.1068    30.77   0.25266    63.16   0.58093   -91.83
       3600   0.47565   135.58    1.0831    29.08   0.26741    63.46   0.58134   -94.08
       3700   0.48031   131.94    1.0607    27.39   0.28309    63.31   0.58079   -96.56
       3800   0.48345   128.30    1.0397    25.75   0.29886    62.87   0.58139   -99.24
       3900   0.49168   124.89    1.0197    24.27    0.3153    62.39   0.58121  -101.66
       4000   0.49625   121.59    1.0004    22.86   0.33184    61.71   0.58087  -104.01
       4100   0.50018   118.26   0.98132    21.34   0.34864    60.74   0.58022  -106.78
       4200   0.50793   115.15   0.96356    20.02   0.36555    59.82   0.58077  -109.52
       4300   0.51373   112.20   0.94758    18.78   0.38267    58.85   0.58114  -112.15
       4400   0.51539   108.96   0.93057    17.59   0.39874    57.45   0.57877  -114.67
       4500   0.52386   106.13   0.91684    16.40   0.41565    56.26   0.57974  -117.42
       4600   0.52939   103.45   0.90253    15.33   0.43208    54.92   0.57862  -120.04
       4700   0.52982   100.67   0.88828    14.28   0.44766    53.47   0.57701  -122.71
       4800   0.53748    98.00   0.87728    13.35   0.46401    52.04   0.57593  -125.42
       4900   0.54319    95.49   0.86495    12.37   0.48004    50.62   0.57674  -128.30
       5000   0.54283    93.02   0.85377    11.43   0.49448    49.09   0.57602  -131.07
       5200    0.5542    88.31   0.83661     9.82    0.5246    45.90   0.57055  -136.15
       5400   0.55804    83.80   0.81842     8.16   0.55173    42.70    0.5701  -142.04
       5600   0.56255    79.51   0.80486     6.68   0.57635    39.45   0.56621  -147.26
       5800   0.57197    75.73   0.79473     5.12   0.59989    36.11   0.56302  -152.55
       6000   0.57288    72.01   0.78345     3.82   0.61924    33.00   0.55914  -158.13

