! Filename:  P:\Prog\Test\Noise\ATS_data\Testdata_Net\03 Spar\BFU550A_APG2013_35_C05_12p0V_005mA_SP_CM01_D.s2p
! Date/Time: Tue 16/Apr/2013 15:10:20
! BFU550A_APG2013_35_C05_12p0V_1to35mA_SP_CM01_Bias4_R.s2p
! MDIF S-parameter v. bias file
! BFU550A_APG2013_35_C05_12p0V_1to35mA_SP_CM01
! Date/time Mon Apr 15 17:55:46 2013
! VAR V_out= 12.0000
! VAR I_out= 5.0000
! VAR V_in= 0.8021
! VAR I_in= 0.0425
! Device data file deembeded for feedlines and parallel
! Original file: \03 Spar\BFU550A_APG2013_35_C05_12p0V_005mA_SP_CM01_R.s2p
! Feed-files: PR017V01_150413_Feed1.s2p, PR017V01_150413_Feed2.s2p
! Parallel-file: PR017V01_150413_Par.s2p
# MHz S MA R 50
!  Freq-MHz   S11-mag  S11-arg   S21-mag  S21-arg   S12-mag  S12-arg   S22-mag  S22-arg
         40   0.85248    -8.71    14.589   171.90 0.0090198    83.17   0.98525    -5.10
         50   0.84733   -10.91     14.43   169.90  0.011298    81.90   0.98186    -6.78
         60   0.84258   -12.96     14.33   167.70  0.013581    81.28   0.97669    -8.11
         70    0.8377   -15.12    14.275   166.10  0.015717    80.37   0.97035    -9.41
         80   0.83222   -17.25     14.17   164.13  0.017837    79.43   0.96433   -10.67
         90   0.82595   -19.23    13.973   162.29  0.019905    78.39   0.95744   -11.91
        100   0.81946   -21.32    13.902   160.63  0.021963    77.53   0.95029   -13.12
        120   0.80304   -25.51    13.746   157.03  0.025928    75.59   0.93568   -15.51
        140   0.78722   -29.37    13.434   153.81  0.029642    73.89   0.91699   -17.72
        160   0.76991   -33.18    13.102   150.69  0.033333    72.03   0.90011   -19.80
        180   0.75109   -36.84    12.772   147.60  0.036677    70.43   0.87917   -21.85
        200   0.73177   -40.42    12.444   144.70  0.039815    68.98   0.85871   -23.68
        220   0.71205   -43.99    12.207   141.85  0.042763    67.85   0.83932   -25.30
        240   0.69082   -47.36    11.884   139.08  0.045592    66.57   0.82026   -26.91
        260   0.67209   -50.48    11.539   136.53  0.048216    65.43   0.80058   -28.40
        280   0.65365   -53.50    11.203   134.20  0.050674    64.45   0.78137   -29.75
        300   0.63359   -56.61    10.907   131.80  0.053047    63.61   0.76252   -30.93
        320   0.61392   -59.57    10.619   129.58  0.055278    62.80   0.74454   -32.11
        340   0.59578   -62.27     10.31   127.46  0.057396    62.08   0.72688   -33.12
        360   0.57933   -64.95    10.018   125.52  0.059482    61.43   0.71123   -34.10
        380   0.56172   -67.47    9.7179   123.58  0.061336    60.84   0.69427   -35.01
        400   0.54566   -69.96    9.4519   121.78  0.063202    60.44   0.67949   -35.69
        420   0.52996   -72.42    9.1936   120.00  0.065059    59.99   0.66536   -36.47
        433   0.51987   -73.98    9.0286   118.92  0.066192    59.76   0.65661   -36.89
        440   0.51462   -74.82    8.9422   118.32   0.06678    59.60   0.65172   -37.14
        460   0.50104   -76.97    8.6892   116.78   0.06846    59.26   0.63895   -37.82
        480   0.48767   -79.25    8.4538   115.26  0.070074    58.98   0.62593   -38.39
        500   0.47376   -81.38    8.2301   113.80  0.071674    58.73   0.61449   -38.93
        550   0.44223   -86.73    7.7259   110.25    0.0753    58.27   0.58539   -40.13
        600   0.41645   -91.40    7.2545   107.21   0.07903    58.07   0.56259   -41.11
        650   0.39311   -95.94    6.8236   104.41   0.08264    57.92   0.54262   -41.99
        700   0.37155  -100.31    6.4448   101.76  0.086077    57.92   0.52422   -42.73
        750   0.35332  -104.49    6.0951    99.38   0.08953    58.01   0.50803   -43.30
        800    0.3367  -108.53    5.7875    97.13  0.092984    58.15   0.49425   -43.92
        850   0.32128  -112.68    5.5041    94.95   0.09638    58.30   0.48075   -44.47
        900   0.30729  -116.52    5.2465    92.95  0.099833    58.48   0.46992   -44.98
        950   0.29573  -120.23    5.0142    91.02   0.10325    58.73   0.45985   -45.55
       1000   0.28485  -123.78    4.7994    89.17   0.10672    58.97   0.45096   -45.96
       1050   0.27528  -127.46    4.5983    87.43   0.11019    59.23    0.4427   -46.40
       1100   0.26648  -131.09    4.4175    85.74   0.11375    59.43   0.43565   -46.91
       1150   0.25919  -134.64    4.2492    84.13   0.11735    59.59   0.42896   -47.34
       1200    0.2519  -138.07    4.0948    82.56   0.12095    59.83   0.42332   -47.90
       1250   0.24593  -141.40    3.9504    81.03    0.1246    60.01   0.41807   -48.42
       1300   0.24022  -144.54    3.8177    79.59   0.12828    60.19   0.41377   -48.91
       1350   0.23555  -147.83    3.6938    78.14   0.13198    60.34   0.40928   -49.48
       1400   0.23166  -151.23    3.5785    76.75   0.13572    60.49   0.40477   -49.98
       1450    0.2278  -154.35    3.4701    75.38   0.13949    60.63   0.40122   -50.52
       1500    0.2247  -157.66    3.3662    74.03   0.14334    60.72   0.39759   -51.21
       1550   0.22143  -160.53    3.2718    72.73    0.1472    60.80   0.39472   -51.80
       1600     0.219  -163.43     3.182    71.50   0.15107    60.90    0.3924   -52.42
       1650   0.21719  -166.39    3.0978    70.25   0.15507    60.95   0.38988   -53.04
       1700   0.21589  -169.20    3.0185    69.02   0.15906    61.03   0.38757   -53.63
       1750   0.21459  -172.17    2.9439    67.81   0.16301    61.03   0.38496   -54.31
       1800   0.21491  -175.04    2.8737    66.60   0.16703    61.04   0.38218   -55.03
       1850    0.2135  -177.58    2.8069    65.41   0.17116    61.04   0.38134   -55.73
       1900   0.21271   179.70     2.741    64.24   0.17529    60.97   0.37986   -56.63
       1950   0.21216   177.15    2.6799    63.13   0.17938    60.94   0.37809   -57.29
       2000   0.21338   174.87    2.6212    62.03   0.18345    60.90     0.377   -58.02
       2050   0.21396   172.32    2.5646    60.97   0.18753    60.87   0.37459   -58.73
       2100    0.2157   170.07    2.5135    59.93   0.19179    60.86   0.37293   -59.48
       2150   0.21698   167.38     2.466    58.89   0.19627    60.80   0.37231   -60.37
       2200   0.21719   165.14    2.4224    57.82   0.20076    60.65   0.37047   -61.21
       2250   0.21669   162.91    2.3779    56.71   0.20512    60.48   0.37134   -62.02
       2300   0.21851   160.62    2.3324    55.68   0.20942    60.32   0.37014   -62.91
       2350   0.22177   158.55    2.2895    54.68   0.21356    60.20   0.36854   -63.69
       2400   0.22325   156.76    2.2502    53.70   0.21795    60.06   0.36822   -64.59
       2450   0.22534   154.54     2.212    52.69   0.22228    59.90   0.36632   -65.52
       2500   0.22615   152.56     2.176    51.71   0.22684    59.76   0.36652   -66.40
       2600   0.23065   148.98    2.1083    49.81   0.23583    59.40    0.3655   -68.45
       2700   0.23805   145.53     2.046    47.98   0.24512    59.08   0.36346   -70.18
       2800   0.24177   141.65    1.9882    46.09   0.25466    58.63   0.36341   -72.10
       2900   0.24729   138.16    1.9356    44.27   0.26417    58.16   0.36228   -74.06
       3000   0.25445   134.91    1.8871    42.49   0.27398    57.66   0.36077   -75.85
       3100   0.25793   131.95    1.8398    40.66   0.28389    57.05   0.36152   -77.92
       3200   0.26266   129.03    1.7946    38.92   0.29382    56.42   0.36234   -79.99
       3300   0.27082   126.46    1.7537    37.21   0.30378    55.83   0.36169   -81.94
       3400   0.27621   123.83    1.7147    35.56   0.31357    55.11   0.36222   -84.28
       3500   0.28063   121.10    1.6779    33.90   0.32356    54.36   0.36318   -86.67
       3600   0.28974   118.85    1.6444    32.31   0.33378    53.73   0.36261   -88.54
       3700   0.29584   116.41    1.6121    30.68   0.34416    52.96   0.36222   -90.86
       3800    0.3013   113.83    1.5812    29.06   0.35449    52.10    0.3632   -93.54
       3900   0.31027   111.62    1.5523    27.53   0.36501    51.32   0.36354   -95.56
       4000    0.3159   109.52    1.5244    26.03   0.37536    50.50   0.36372   -97.70
       4100   0.32133   107.25    1.4975    24.42   0.38569    49.57   0.36443  -100.40
       4200   0.33043   105.26    1.4729    22.94   0.39625    48.66   0.36512  -102.79
       4300   0.33794   103.32    1.4487    21.47   0.40688    47.76   0.36548  -104.99
       4400   0.34185   101.10    1.4235    20.03     0.417    46.76   0.36618  -107.60
       4500   0.35191    99.22    1.4029    18.57   0.42776    45.80   0.36779  -110.04
       4600   0.35887    97.56    1.3813    17.18    0.4381    44.82   0.36867  -112.36
       4700   0.36164    95.69    1.3594    15.79   0.44805    43.79   0.36905  -114.94
       4800   0.37185    93.85    1.3406    14.50    0.4588    42.77   0.37004  -117.44
       4900    0.3796    92.13    1.3207    13.12   0.46914    41.72   0.37156  -119.97
       5000   0.38242    90.48    1.3019    11.79   0.47874    40.65   0.37281  -122.69
       5200   0.39972    87.34    1.2684     9.30   0.49972    38.47   0.37454  -127.28
       5400   0.41054    84.10    1.2335     6.75   0.51845    36.21   0.37807  -132.86
       5600   0.42213    80.97    1.2025     4.40   0.53732    33.91   0.38069  -137.98
       5800    0.4398    78.21    1.1749     1.99   0.55572    31.52   0.38543  -143.00
       6000   0.44874    75.36     1.145    -0.17   0.57158    29.23   0.38694  -148.62

