! Filename:  P:\Prog\Test\Noise\ATS_data\Testdata_Net\03 Spar\BFU550A_APG2013_35_C05_03p3V_005mA_SP_CM01_D.s2p
! Date/Time: Tue 16/Apr/2013 15:10:17
! BFU550A_APG2013_35_C05_03p3V_1to35mA_SP_CM01_Bias4_R.s2p
! MDIF S-parameter v. bias file
! BFU530A_APG2013_33_A09_08p0V_015mA_SP_CM01
! Date/time Mon Apr 15 14:22:32 2013
! VAR V_out= 3.3000
! VAR I_out= 4.9950
! VAR V_in= 0.8222
! VAR I_in= 0.0538
! Device data file deembeded for feedlines and parallel
! Original file: \03 Spar\BFU550A_APG2013_35_C05_03p3V_005mA_SP_CM01_R.s2p
! Feed-files: PR017V01_150413_Feed1.s2p, PR017V01_150413_Feed2.s2p
! Parallel-file: PR017V01_150413_Par.s2p
# MHz S MA R 50
!  Freq-MHz   S11-mag  S11-arg   S21-mag  S21-arg   S12-mag  S12-arg   S22-mag  S22-arg
         40   0.82437    -9.65    14.972   171.38 0.0096717    85.05   0.98766    -5.93
         50   0.81946   -12.03     14.78   169.58  0.012119    83.33   0.98387    -7.58
         60   0.81514   -14.35    14.743   167.26  0.014452    82.13   0.97751    -8.97
         70   0.80944   -16.73    14.669   165.33  0.016759    81.08   0.97136   -10.37
         80   0.80335   -19.01    14.523   163.26  0.019059    79.86   0.96487   -11.79
         90   0.79691   -21.22     14.33   161.37  0.021218    78.59   0.95663   -13.18
        100   0.78935   -23.53    14.246   159.49  0.023376    77.55   0.94812   -14.50
        120   0.77249   -28.03    14.014   155.79  0.027543    75.43   0.93087   -17.06
        140   0.75514   -32.30    13.688   152.31  0.031439    73.45   0.91057   -19.45
        160   0.73743   -36.43    13.303   149.09  0.035241    71.49   0.89088   -21.70
        180   0.71731   -40.39    12.932   145.83  0.038697    69.79   0.86756   -23.85
        200   0.69801   -44.30    12.578   142.89  0.041927    68.25   0.84568   -25.78
        220   0.67762   -48.11    12.288   139.91  0.044937    67.04   0.82386   -27.52
        240   0.65663   -51.74    11.931   137.12  0.047798    65.72   0.80271   -29.19
        260   0.63775   -55.11    11.555   134.51  0.050462    64.57   0.78174   -30.72
        280   0.61893   -58.42    11.203   132.10  0.052996    63.60   0.76124   -32.13
        300   0.59946   -61.72    10.874   129.72  0.055367    62.76   0.74104   -33.35
        320   0.58049   -64.84     10.56   127.46  0.057618    61.92   0.72201   -34.58
        340   0.56312   -67.75    10.233   125.36  0.059717    61.23   0.70346   -35.62
        360   0.54705   -70.62    9.9215   123.39  0.061812    60.63   0.68681   -36.61
        380   0.53066   -73.34    9.6124   121.48  0.063718    60.08   0.66937   -37.52
        400   0.51483   -75.99    9.3295   119.66  0.065594    59.68   0.65426   -38.24
        420   0.50076   -78.64    9.0603   117.89   0.06747    59.26   0.63944   -39.03
        433   0.49116   -80.28    8.8866   116.83  0.068624    59.01   0.63046   -39.45
        440   0.48644   -81.18    8.7969   116.25  0.069212    58.89   0.62541   -39.71
        460   0.47361   -83.52    8.5387   114.71  0.070941    58.58   0.61243   -40.39
        480   0.46136   -85.93    8.2957   113.22  0.072546    58.32   0.59914   -40.99
        500   0.44859   -88.21    8.0651   111.76  0.074164    58.09   0.58745   -41.52
        550   0.42023   -93.88    7.5496   108.29  0.077869    57.72   0.55798   -42.72
        600   0.39712   -98.92    7.0745   105.28  0.081697    57.57   0.53502   -43.70
        650   0.37646  -103.77     6.642   102.53  0.085455    57.50   0.51511   -44.57
        700     0.358  -108.39    6.2639    99.95  0.089012    57.54   0.49675   -45.33
        750   0.34213  -112.86    5.9169    97.59  0.092594    57.68   0.48062   -45.90
        800   0.32814  -117.13    5.6116    95.37  0.096196    57.85   0.46703   -46.54
        850    0.3155  -121.43    5.3326    93.24   0.09977    58.02   0.45372   -47.11
        900   0.30403  -125.54    5.0785    91.26   0.10341    58.20    0.4431   -47.63
        950   0.29448  -129.30    4.8497    89.36   0.10696    58.46   0.43317   -48.21
       1000   0.28572  -133.04    4.6392    87.54   0.11063    58.70   0.42442   -48.64
       1050    0.2782  -136.79    4.4427    85.81   0.11428    58.96   0.41624   -49.10
       1100   0.27172  -140.48    4.2664    84.15   0.11806    59.16    0.4094   -49.62
       1150   0.26633  -144.02    4.1028    82.55   0.12184    59.31   0.40282   -50.10
       1200   0.26057  -147.41    3.9518    81.00    0.1256    59.52   0.39736   -50.69
       1250   0.25629  -150.72    3.8113    79.48   0.12946    59.67   0.39226   -51.25
       1300   0.25204  -153.86    3.6826    78.03   0.13333    59.84   0.38799   -51.76
       1350   0.24894  -156.99     3.562    76.61   0.13722    59.97   0.38367   -52.34
       1400   0.24647  -160.29    3.4504    75.22   0.14113    60.09   0.37925   -52.90
       1450   0.24384  -163.23    3.3457    73.87   0.14511    60.20   0.37572   -53.47
       1500   0.24235  -166.33    3.2453    72.52   0.14912    60.26   0.37221   -54.20
       1550   0.23994  -169.12    3.1535    71.21    0.1532    60.30   0.36949   -54.84
       1600   0.23894  -171.79    3.0666    69.98    0.1573    60.37   0.36721   -55.48
       1650   0.23793  -174.54    2.9857    68.73   0.16146    60.40   0.36482   -56.15
       1700   0.23755  -177.17     2.909    67.50   0.16562    60.44   0.36253   -56.78
       1750   0.23729  -179.88    2.8365    66.29   0.16971    60.40   0.36002   -57.50
       1800   0.23843   177.59    2.7688    65.08   0.17394    60.39   0.35734   -58.27
       1850   0.23751   175.15    2.7043    63.90   0.17825    60.35   0.35653   -59.01
       1900   0.23737   172.77    2.6411    62.74   0.18254    60.25   0.35514   -59.95
       1950   0.23768   170.36    2.5822    61.63   0.18681    60.19   0.35343   -60.66
       2000   0.23937   168.37    2.5258    60.52   0.19105    60.11   0.35237   -61.43
       2050   0.24043   166.14    2.4714    59.45   0.19528    60.05   0.35012   -62.19
       2100   0.24275   164.11    2.4217    58.41   0.19967    59.99   0.34849   -63.00
       2150    0.2447   161.71    2.3759    57.36    0.2043    59.90   0.34793   -63.93
       2200   0.24535   159.54    2.3339    56.30   0.20897    59.72   0.34621   -64.83
       2250   0.24502   157.58     2.291    55.19   0.21349    59.53   0.34703   -65.67
       2300   0.24721   155.56    2.2476    54.16   0.21794    59.33   0.34595   -66.60
       2350    0.2504   153.76    2.2062    53.16   0.22221    59.18   0.34437   -67.45
       2400   0.25244   152.01    2.1684    52.17   0.22675    59.01   0.34409   -68.39
       2450   0.25466   150.12     2.132    51.16   0.23121    58.81   0.34234   -69.37
       2500   0.25556   148.25    2.0971    50.18   0.23588    58.65   0.34267   -70.32
       2600   0.26029   144.99    2.0313    48.27    0.2451    58.21    0.3418   -72.46
       2700   0.26839   141.91    1.9715    46.44   0.25465    57.84   0.33979   -74.29
       2800   0.27228   138.36    1.9162    44.55   0.26435    57.32   0.33983   -76.33
       2900   0.27771   135.12    1.8656    42.72     0.274    56.81   0.33893   -78.39
       3000    0.2851   132.20    1.8187    40.94   0.28407    56.26   0.33749   -80.26
       3100   0.28838   129.33    1.7735    39.11   0.29411    55.58   0.33814   -82.45
       3200   0.29346   126.59    1.7299    37.39   0.30423    54.90   0.33917   -84.62
       3300   0.30106   124.21    1.6907    35.70   0.31425    54.26   0.33877   -86.64
       3400    0.3063   121.69    1.6526    34.02   0.32414    53.49   0.33934   -89.08
       3500   0.31097   119.14    1.6171    32.38   0.33414    52.69   0.34043   -91.59
       3600   0.32019   116.94    1.5855    30.79    0.3444    52.03   0.34007   -93.55
       3700   0.32564   114.60    1.5541    29.19   0.35474    51.22   0.33992   -95.96
       3800   0.33102   112.10     1.524    27.58   0.36502    50.33   0.34117   -98.72
       3900   0.34004   109.97    1.4961    26.06   0.37553    49.51   0.34148  -100.84
       4000    0.3455   108.00    1.4695    24.57   0.38586    48.66   0.34188  -103.06
       4100   0.35055   105.76    1.4437    22.98   0.39604    47.69   0.34297  -105.86
       4200   0.35946   103.76    1.4197    21.52   0.40655    46.76   0.34391  -108.31
       4300   0.36681   101.93    1.3966    20.04   0.41707    45.83   0.34425  -110.60
       4400   0.37028    99.76     1.372    18.63   0.42693    44.80   0.34528  -113.30
       4500   0.38027    97.97    1.3523    17.19   0.43763    43.83   0.34729  -115.77
       4600   0.38679    96.24    1.3316    15.82   0.44779    42.82    0.3482  -118.14
       4700   0.38948    94.37    1.3103    14.46   0.45742    41.77   0.34894  -120.84
       4800   0.39946    92.62    1.2922    13.16   0.46798    40.74   0.35035  -123.39
       4900   0.40666    90.94    1.2734    11.82   0.47804    39.68   0.35205  -125.92
       5000   0.40929    89.28    1.2551    10.51   0.48735    38.59   0.35356  -128.72
       5200   0.42584    86.13    1.2228     8.05   0.50767    36.39    0.3559  -133.41
       5400   0.43571    82.97    1.1894     5.58   0.52569    34.11   0.36015  -139.04
       5600   0.44692    79.83    1.1594     3.29    0.5436    31.83   0.36347  -144.23
       5800   0.46354    77.08    1.1331     0.96   0.56125    29.43   0.36893  -149.23
       6000   0.47153    74.28    1.1046    -1.16   0.57625    27.16   0.37159  -154.88

