! Filename:  P:\Prog\Test\Noise\ATS_data\Testdata_Net\03 Spar\BFU550A_APG2013_35_C05_03p3V_010mA_SP_CM01_D.s2p
! Date/Time: Tue 16/Apr/2013 15:10:19
! BFU550A_APG2013_35_C05_03p3V_1to35mA_SP_CM01_Bias5_R.s2p
! MDIF S-parameter v. bias file
! BFU530A_APG2013_33_A09_08p0V_015mA_SP_CM01
! Date/time Mon Apr 15 14:22:32 2013
! VAR V_out= 3.3000
! VAR I_out= 10.0050
! VAR V_in= 0.8361
! VAR I_in= 0.1094
! Device data file deembeded for feedlines and parallel
! Original file: \03 Spar\BFU550A_APG2013_35_C05_03p3V_010mA_SP_CM01_R.s2p
! Feed-files: PR017V01_150413_Feed1.s2p, PR017V01_150413_Feed2.s2p
! Parallel-file: PR017V01_150413_Par.s2p
# MHz S MA R 50
!  Freq-MHz   S11-mag  S11-arg   S21-mag  S21-arg   S12-mag  S12-arg   S22-mag  S22-arg
         40   0.68835   -15.15    25.197   167.04 0.0089271    83.38   0.97146    -9.11
         50   0.67924   -18.88    24.743   164.26  0.011132    81.29   0.96072   -11.51
         60   0.66986   -22.45    24.456   161.07  0.013184    79.72   0.94777   -13.55
         70   0.65937   -26.03    24.102   158.28  0.015173    78.26   0.93381   -15.56
         80   0.64829   -29.46    23.641   155.45  0.017103    76.86   0.91889   -17.53
         90   0.63611   -32.76     23.14   152.83  0.018895    75.48   0.90182   -19.36
        100   0.62324   -36.06    22.729   150.26  0.020673    74.40   0.88481   -21.07
        120   0.59639   -42.41    21.791   145.42  0.023972    72.17   0.85023   -24.25
        140   0.56989   -48.26    20.785   141.02  0.026938    70.40   0.81422   -27.00
        160   0.54386   -53.72    19.726   137.07  0.029759    68.77   0.77992   -29.40
        180   0.51742   -58.92     18.75   133.35  0.032322    67.58    0.7452   -31.48
        200   0.49346   -63.71    17.821   130.03  0.034678    66.61   0.71379   -33.24
        220   0.47065   -68.22    16.989   126.90  0.036875    66.03   0.68498   -34.74
        240    0.4487   -72.49    16.153   124.07  0.038968    65.41   0.65762   -36.01
        260   0.42922   -76.51    15.374   121.48   0.04099    65.00   0.63267   -37.12
        280   0.41191   -80.28    14.657   119.15  0.042914    64.76   0.60965   -38.04
        300   0.39502   -83.94    13.983   116.97  0.044816    64.57   0.58883   -38.78
        320   0.37921   -87.29    13.358   114.98  0.046649    64.42    0.5693   -39.50
        340   0.36517   -90.48    12.776   113.10  0.048457    64.36   0.55138   -40.01
        360   0.35294   -93.58    12.243   111.39  0.050262    64.37   0.53552   -40.51
        380   0.34093   -96.56    11.736   109.77  0.051987    64.40   0.52005   -40.91
        400    0.3301   -99.36    11.274   108.25  0.053769    64.53   0.50691   -41.17
        420   0.32057  -102.20    10.843   106.79  0.055554    64.61   0.49424   -41.49
        433   0.31417  -103.94    10.579   105.91  0.056652    64.65   0.48676   -41.61
        440   0.31116  -104.89     10.44   105.44  0.057296    64.68   0.48277   -41.70
        460   0.30318  -107.33    10.059   104.19   0.05903    64.83   0.47235   -41.96
        480   0.29613  -109.90    9.7073   102.97  0.060718    64.93   0.46197   -42.14
        500   0.28813  -112.33    9.3752   101.82  0.062495    65.06   0.45317   -42.29
        550   0.27173  -118.26    8.6539    99.04  0.066689    65.44   0.43131   -42.55
        600   0.25941  -123.44      8.02    96.66  0.071183    65.80    0.4156   -42.80
        650    0.2489  -128.56    7.4683    94.46  0.075615    66.10   0.40217   -43.07
        700   0.23997  -133.24    6.9892    92.41  0.080022    66.41   0.39038   -43.28
        750   0.23278  -137.84    6.5633    90.52  0.084492    66.68    0.3801   -43.42
        800   0.22694  -142.09    6.1913    88.74  0.089016    66.88   0.37197   -43.75
        850   0.22225  -146.37    5.8576    87.03  0.093498    67.05    0.3635   -44.04
        900   0.21773  -150.40    5.5569    85.42  0.098059    67.21   0.35714   -44.33
        950   0.21436  -154.00    5.2889    83.87   0.10262    67.31   0.35175   -44.76
       1000   0.21088  -157.51    5.0446    82.36   0.10722    67.39   0.34673   -45.05
       1050   0.20934  -161.03    4.8194    80.95   0.11186    67.44   0.34227   -45.43
       1100   0.20744  -164.47    4.6176    79.56   0.11654    67.43   0.33844   -45.92
       1150   0.20661  -167.66    4.4314    78.22   0.12117    67.39   0.33444   -46.35
       1200   0.20518  -170.75    4.2611    76.91   0.12588    67.33   0.33172   -46.96
       1250   0.20479  -173.68    4.1033    75.63   0.13058    67.25   0.32886   -47.53
       1300   0.20353  -176.43    3.9586    74.39   0.13529    67.14   0.32684   -48.06
       1350   0.20369  -179.16    3.8245    73.17      0.14    67.00   0.32456   -48.71
       1400   0.20446   178.02    3.6998    71.97   0.14474    66.87    0.3219   -49.29
       1450   0.20473   175.49    3.5836    70.80   0.14949    66.70   0.32006   -49.93
       1500   0.20561   172.90    3.4726    69.63   0.15428    66.52   0.31796   -50.74
       1550   0.20554   170.56    3.3713    68.49   0.15908    66.30   0.31658   -51.45
       1600   0.20605   168.30    3.2755    67.41   0.16385    66.10   0.31564   -52.19
       1650   0.20726   166.11    3.1859    66.31   0.16867    65.87   0.31442   -52.94
       1700   0.20824   163.96    3.1016    65.21   0.17348    65.64   0.31337   -53.66
       1750   0.21019   161.74    3.0225    64.15   0.17822    65.37   0.31174   -54.48
       1800   0.21274   159.64    2.9482    63.07   0.18303    65.13   0.30991   -55.34
       1850    0.2129   157.67    2.8777    62.01   0.18793    64.86   0.30987   -56.18
       1900   0.21418   155.79    2.8086    60.96   0.19275    64.52   0.30933   -57.25
       1950   0.21527   153.70    2.7445    59.96    0.1975    64.24   0.30832   -58.05
       2000   0.21792   152.35    2.6828    58.97   0.20228    63.93    0.3079   -58.92
       2050   0.21996   150.54    2.6242    58.01   0.20695    63.66   0.30626   -59.78
       2100   0.22303   149.06    2.5703    57.06   0.21177    63.40   0.30506   -60.69
       2150   0.22585   147.08    2.5205    56.13   0.21692    63.10   0.30488   -61.74
       2200    0.2272   145.31    2.4748    55.14   0.22196    62.73   0.30367   -62.72
       2250    0.2274   143.56     2.428    54.13   0.22686    62.35   0.30481   -63.67
       2300    0.2302   141.97    2.3809    53.17   0.23167    61.97   0.30408   -64.68
       2350   0.23397   140.64    2.3363    52.27   0.23633    61.63   0.30273   -65.62
       2400   0.23586   139.36    2.2956    51.37   0.24115    61.28   0.30275   -66.64
       2450     0.239   137.70    2.2563    50.43    0.2459    60.92   0.30125   -67.72
       2500    0.2405   136.21    2.2189    49.53   0.25089    60.58   0.30178   -68.77
       2600   0.24536   133.66    2.1481    47.76   0.26055    59.83   0.30135   -71.09
       2700   0.25367   131.34     2.084    46.07   0.27047    59.15   0.29952   -73.07
       2800   0.25802   128.27    2.0243    44.31   0.28056    58.36   0.29982   -75.28
       2900   0.26413   125.59    1.9701    42.61   0.29049    57.58   0.29906   -77.47
       3000   0.27169   123.18    1.9202    40.92   0.30073    56.78   0.29763   -79.43
       3100   0.27501   120.75    1.8717    39.19    0.3108    55.87   0.29854   -81.75
       3200   0.27975   118.53    1.8253    37.56   0.32087    54.99   0.29965   -84.06
       3300   0.28737   116.54    1.7833    35.96   0.33088    54.13     0.299   -86.12
       3400   0.29246   114.50    1.7428    34.37   0.34054    53.18   0.29961   -88.73
       3500   0.29687   112.29    1.7052    32.80   0.35022    52.24   0.30091   -91.40
       3600   0.30559   110.53    1.6713    31.29   0.36027    51.42   0.30025   -93.40
       3700   0.31086   108.48    1.6386    29.76   0.37024    50.48   0.30007   -95.93
       3800   0.31607   106.24    1.6062    28.21   0.38006    49.47    0.3014   -98.86
       3900   0.32458   104.57    1.5775    26.74   0.39013    48.54   0.30153  -101.00
       4000   0.32973   102.88    1.5491    25.29   0.39992    47.59    0.3018  -103.29
       4100   0.33488   100.87    1.5219    23.76   0.40947    46.54   0.30301  -106.23
       4200   0.34335    99.15    1.4966    22.32   0.41937    45.53   0.30379  -108.70
       4300   0.35048    97.56    1.4727    20.91   0.42923    44.53    0.3039  -111.04
       4400   0.35368    95.68    1.4469    19.51    0.4384    43.46   0.30512  -113.85
       4500   0.36338    94.09    1.4265    18.12   0.44835    42.43   0.30698  -116.34
       4600   0.36966    92.61    1.4049    16.76   0.45779    41.40   0.30787  -118.75
       4700   0.37196    90.94    1.3828    15.42   0.46658    40.32   0.30866  -121.53
       4800   0.38135    89.46     1.364    14.14   0.47635    39.27   0.31001  -124.11
       4900   0.38871    87.97    1.3444    12.81   0.48564    38.18    0.3116  -126.66
       5000   0.39073    86.49    1.3254    11.53   0.49416    37.09   0.31311  -129.55
       5200   0.40683    83.73    1.2916     9.06   0.51277    34.90   0.31575  -134.19
       5400   0.41663    80.86    1.2576     6.58   0.52911    32.65   0.31996  -139.91
       5600    0.4279    78.10    1.2261     4.25    0.5455    30.42    0.3236  -145.14
       5800    0.4442    75.65     1.199     1.87   0.56161    28.10   0.32951  -150.08
       6000    0.4527    73.07    1.1697    -0.29   0.57513    25.90   0.33255  -155.83

