! Filename:  P:\Prog\Test\Noise\ATS_data\Testdata_Net\03 Spar\BFU550A_APG2013_35_C05_05p0V_025mA_SP_CM01_D.s2p
! Date/Time: Tue 16/Apr/2013 15:10:21
! BFU550A_APG2013_35_C05_05p0V_1to35mA_SP_CM01_Bias7_R.s2p
! MDIF S-parameter v. bias file
! BFU550A_APG2013_35_C05_05p0V_1to35mA_SP_CM01
! Date/time Mon Apr 15 15:41:37 2013
! VAR V_out= 5.0000
! VAR I_out= 24.9950
! VAR V_in= 0.8339
! VAR I_in= 0.2732
! Device data file deembeded for feedlines and parallel
! Original file: \03 Spar\BFU550A_APG2013_35_C05_05p0V_025mA_SP_CM01_R.s2p
! Feed-files: PR017V01_150413_Feed1.s2p, PR017V01_150413_Feed2.s2p
! Parallel-file: PR017V01_150413_Par.s2p
# MHz S MA R 50
!  Freq-MHz   S11-mag  S11-arg   S21-mag  S21-arg   S12-mag  S12-arg   S22-mag  S22-arg
         40   0.45659   -27.59    40.065   160.06 0.0075257    81.37   0.93025   -13.40
         50   0.44292   -34.28     38.74   155.63 0.0092666    78.82   0.90701   -16.56
         60   0.43019   -40.22    37.454   151.23  0.010876    77.24   0.87958   -19.22
         70   0.41853   -46.07    36.179   147.48  0.012359    75.75   0.85185   -21.64
         80   0.40501   -51.80    34.832   143.68  0.013804    74.61   0.82363   -23.86
         90   0.39033   -56.91    33.355   140.25   0.01509    73.42   0.79483   -25.73
        100   0.37864   -61.66    32.009   137.21  0.016336    72.72   0.76727   -27.41
        120   0.35444   -70.98    29.448   131.63  0.018655    71.46   0.71539   -30.13
        140   0.33426   -78.82    27.038   126.98  0.020794    70.79   0.66897   -32.07
        160   0.31521   -86.14    24.831   122.96  0.022865    70.32   0.62865   -33.48
        180   0.30034   -92.72    22.936   119.52  0.024867    70.19   0.59267   -34.48
        200   0.28664   -98.54    21.241   116.52   0.02677    70.26   0.56257   -35.12
        220   0.27639  -103.76    19.819   113.83  0.028612    70.51   0.53691   -35.59
        240   0.26607  -108.71    18.495   111.49  0.030468    70.75   0.51401   -35.79
        260   0.25824  -113.33    17.344   109.34  0.032344    70.97   0.49464   -35.96
        280   0.25145  -117.47    16.309   107.49  0.034178    71.27   0.47766   -35.99
        300   0.24582  -121.35    15.376   105.77  0.036029    71.61   0.46283   -35.89
        320   0.24081  -124.77    14.541   104.26  0.037907    71.83   0.44966   -35.85
        340   0.23603  -128.14     13.79   102.77  0.039774    72.09   0.43805   -35.67
        360   0.23275  -131.17    13.116   101.47  0.041635    72.35   0.42813   -35.58
        380   0.22922  -134.17    12.489   100.22  0.043502    72.64   0.41853   -35.43
        400   0.22623  -136.86     11.93    99.06  0.045379    72.88   0.41087   -35.20
        420   0.22422  -139.54    11.412    97.93  0.047308    73.07   0.40347   -35.11
        433   0.22268  -141.22    11.104    97.27  0.048532    73.20   0.39928   -34.97
        440   0.22226  -142.04    10.939    96.91   0.04922    73.23   0.39702   -34.93
        460   0.22021  -144.20    10.498    95.95  0.051102    73.41   0.39134   -34.89
        480   0.21919  -146.47    10.094    95.00  0.052996    73.56   0.38552   -34.75
        500   0.21754  -148.61    9.7191    94.12  0.054913    73.69   0.38103   -34.65
        550   0.21487  -153.84    8.9088    91.94  0.059609    74.02   0.36894   -34.36
        600   0.21247  -157.89    8.2134    90.07  0.064491    74.17   0.36152   -34.34
        650   0.21186  -162.04    7.6173    88.31  0.069335    74.28   0.35504   -34.45
        700   0.21075  -165.66    7.1027    86.64   0.07415    74.36   0.34955   -34.54
        750   0.21046  -169.02    6.6518    85.10  0.079012    74.40   0.34475   -34.67
        800    0.2107  -172.08    6.2603    83.63  0.083883    74.37   0.34116   -35.06
        850    0.2115  -175.26    5.9102    82.19  0.088729    74.29   0.33681   -35.39
        900   0.21172  -178.11    5.5982    80.84  0.093654    74.21   0.33402   -35.79
        950   0.21193   179.29    5.3205    79.49  0.098529    74.08    0.3318   -36.36
       1000   0.21206   176.80    5.0681    78.19   0.10347    73.93    0.3297   -36.78
       1050   0.21328   174.41    4.8372    76.96   0.10841    73.76   0.32787   -37.32
       1100   0.21474   171.97    4.6304    75.74   0.11335    73.55   0.32624   -37.96
       1150   0.21586   169.90    4.4395    74.55   0.11828    73.32   0.32422   -38.53
       1200   0.21705   167.68    4.2658    73.39   0.12321    73.08   0.32318   -39.32
       1250   0.21819   165.60    4.1046    72.23   0.12819    72.82   0.32192   -40.03
       1300   0.21888   163.66    3.9576    71.11   0.13314    72.54   0.32144   -40.74
       1350   0.22041   161.80    3.8213    70.00   0.13808    72.25   0.32045   -41.56
       1400   0.22261   159.83    3.6949    68.91   0.14307    71.96   0.31899   -42.28
       1450   0.22391   158.05    3.5774    67.83   0.14805    71.64   0.31824   -43.07
       1500   0.22609   156.16    3.4651    66.75   0.15302    71.30   0.31708   -44.02
       1550   0.22688   154.43    3.3624    65.70   0.15804    70.97   0.31663   -44.86
       1600   0.22808   152.88     3.266    64.69     0.163    70.64   0.31651   -45.76
       1650   0.23006   151.27    3.1754    63.66   0.16807    70.29   0.31603   -46.63
       1700   0.23167   149.74    3.0905    62.64   0.17306    69.93   0.31578   -47.50
       1750   0.23394   148.11    3.0108    61.64   0.17796    69.57   0.31471   -48.44
       1800   0.23708   146.72    2.9369    60.64   0.18301    69.21   0.31346   -49.40
       1850   0.23767   145.15    2.8654    59.62   0.18804    68.83   0.31396   -50.38
       1900   0.23926   143.72    2.7958    58.62   0.19308    68.40   0.31381   -51.55
       1950   0.24099   142.16    2.7316    57.67   0.19799    68.02   0.31327   -52.47
       2000   0.24377   141.15    2.6692    56.74   0.20291    67.63    0.3133   -53.46
       2050   0.24596   139.79    2.6103    55.83   0.20777    67.27   0.31204   -54.40
       2100   0.24884   138.76    2.5561    54.94   0.21281    66.94   0.31118   -55.40
       2150   0.25221   137.20    2.5059    54.04   0.21807    66.56   0.31122   -56.54
       2200   0.25383   135.73    2.4606    53.10   0.22334    66.10   0.31035   -57.59
       2250   0.25431   134.33    2.4135    52.12    0.2284    65.65   0.31186   -58.66
       2300   0.25722   133.10    2.3664    51.20   0.23332    65.19   0.31136   -59.77
       2350   0.26084   132.15    2.3219    50.33   0.23818    64.79    0.3102   -60.76
       2400   0.26281   131.09     2.281    49.47   0.24316    64.38   0.31043   -61.87
       2450   0.26595   129.80    2.2413    48.57   0.24812    63.96   0.30911   -63.02
       2500   0.26753   128.45    2.2034    47.69   0.25326    63.55   0.30978   -64.14
       2600   0.27232   126.41    2.1325    45.98    0.2632    62.67   0.30961   -66.62
       2700   0.28045   124.65    2.0683    44.36   0.27345    61.88   0.30814   -68.72
       2800   0.28492   122.03    2.0084    42.64   0.28387    60.98   0.30872   -71.05
       2900   0.29123   119.74    1.9542    40.98   0.29413    60.09   0.30816   -73.35
       3000   0.29864   117.69    1.9041    39.34   0.30472    59.19   0.30705   -75.43
       3100    0.3015   115.52    1.8554    37.66   0.31506    58.18   0.30811   -77.86
       3200   0.30647   113.56     1.809    36.06   0.32539    57.21   0.30937   -80.28
       3300   0.31379   111.89    1.7672    34.50    0.3357    56.26   0.30874   -82.45
       3400   0.31844   109.99    1.7263    32.96   0.34564    55.23   0.30941   -85.14
       3500   0.32276   108.00    1.6885    31.41   0.35556    54.20   0.31076   -87.91
       3600    0.3313   106.48    1.6545    29.94   0.36586    53.31   0.31019   -90.00
       3700   0.33639   104.64    1.6214    28.42    0.3761    52.30    0.3099   -92.61
       3800    0.3414   102.59    1.5893    26.92   0.38616    51.21   0.31119   -95.62
       3900   0.34961   101.00    1.5603    25.47   0.39651    50.21   0.31146   -97.84
       4000   0.35416    99.48    1.5317    24.06   0.40652    49.20    0.3117  -100.22
       4100   0.35926    97.59    1.5044    22.57   0.41623    48.09   0.31277  -103.21
       4200   0.36764    96.04     1.479    21.15   0.42637    47.02   0.31355  -105.78
       4300     0.374    94.57     1.455    19.78   0.43648    45.95   0.31367  -108.18
       4400   0.37706    92.75    1.4292    18.39   0.44575    44.82   0.31475  -111.05
       4500   0.38676    91.27    1.4084    17.01   0.45597    43.73    0.3165  -113.64
       4600   0.39238    89.88     1.387    15.70   0.46557    42.64   0.31746  -116.11
       4700   0.39436    88.30    1.3647    14.39   0.47452    41.52   0.31816  -118.94
       4800   0.40378    86.87    1.3459    13.14   0.48449    40.42   0.31928  -121.57
       4900   0.41061    85.46    1.3262    11.82   0.49389    39.28   0.32083  -124.23
       5000   0.41255    84.04     1.307    10.57   0.50253    38.14   0.32217  -127.16
       5200   0.42782    81.42    1.2735     8.17   0.52146    35.86   0.32463  -131.92
       5400   0.43686    78.62    1.2393     5.73    0.5379    33.52   0.32856  -137.77
       5600   0.44755    75.96    1.2078     3.45   0.55448    31.20   0.33192  -143.09
       5800   0.46345    73.61    1.1806     1.12   0.57068    28.80   0.33761  -148.15
       6000    0.4707    71.09    1.1512    -0.97   0.58425    26.53   0.34009  -153.99

