! Filename:  P:\Prog\Test\Noise\ATS_data\Testdata_Net\03 Spar\BFU550A_APG2013_35_C05_05p0V_005mA_SP_CM01_D.s2p
! Date/Time: Tue 16/Apr/2013 15:10:17
! BFU550A_APG2013_35_C05_05p0V_1to35mA_SP_CM01_Bias4_R.s2p
! MDIF S-parameter v. bias file
! BFU550A_APG2013_35_C05_05p0V_1to35mA_SP_CM01
! Date/time Mon Apr 15 15:41:37 2013
! VAR V_out= 5.0010
! VAR I_out= 4.9950
! VAR V_in= 0.8180
! VAR I_in= 0.0527
! Device data file deembeded for feedlines and parallel
! Original file: \03 Spar\BFU550A_APG2013_35_C05_05p0V_005mA_SP_CM01_R.s2p
! Feed-files: PR017V01_150413_Feed1.s2p, PR017V01_150413_Feed2.s2p
! Parallel-file: PR017V01_150413_Par.s2p
# MHz S MA R 50
!  Freq-MHz   S11-mag  S11-arg   S21-mag  S21-arg   S12-mag  S12-arg   S22-mag  S22-arg
         40   0.82921    -9.36    14.944   171.63 0.0093815    85.26   0.98802    -5.77
         50   0.82357   -11.73    14.779   169.66  0.011689    83.77    0.9828    -7.29
         60   0.81898   -13.89    14.676   167.37  0.014022    82.40   0.97846    -8.63
         70   0.81419   -16.21    14.619   165.67  0.016258    81.29   0.97263   -10.00
         80   0.80803   -18.50    14.514   163.55  0.018469    80.08   0.96648   -11.38
         90   0.80105   -20.61    14.301   161.59  0.020587    78.87   0.95861   -12.71
        100   0.79426   -22.83    14.203   159.84  0.022695    77.91   0.95018   -13.99
        120   0.77745   -27.28    14.007   156.16  0.026741    75.80   0.93371   -16.46
        140   0.76114   -31.38    13.675   152.80  0.030536    73.88   0.91438   -18.77
        160   0.74276   -35.44    13.305   149.53  0.034258    71.90   0.89526   -20.98
        180   0.72399   -39.31    12.945   146.39  0.037653    70.24    0.8727   -23.05
        200   0.70431   -43.10    12.593   143.42  0.040832    68.72   0.85145   -24.94
        220   0.68403   -46.85    12.319   140.49  0.043801    67.51   0.83047   -26.64
        240   0.66318   -50.35    11.964   137.71   0.04659    66.21   0.80988   -28.26
        260   0.64421   -53.69    11.603   135.10  0.049235    65.12   0.78943   -29.76
        280   0.62603   -56.90    11.247   132.73  0.051716    64.09   0.76937   -31.14
        300   0.60605   -60.14    10.925   130.32  0.054017    63.24   0.74955   -32.34
        320   0.58721   -63.21    10.616   128.12  0.056298    62.43     0.731   -33.53
        340   0.56951   -66.05    10.292   125.99  0.058376    61.72   0.71274   -34.55
        360   0.55335   -68.84    9.9855   124.04  0.060421    61.12   0.69637   -35.52
        380   0.53659   -71.50    9.6764   122.12  0.062306    60.54   0.67916   -36.41
        400   0.52105   -74.12       9.4   120.30  0.064182    60.15   0.66416   -37.11
        420   0.50627   -76.68    9.1286   118.53  0.066038    59.71   0.64956   -37.89
        433   0.49669   -78.33    8.9596   117.48  0.067151    59.49   0.64066   -38.29
        440   0.49178   -79.21    8.8706   116.88  0.067748    59.33   0.63573   -38.55
        460   0.47859   -81.49    8.6108   115.35  0.069438    59.03   0.62286   -39.23
        480   0.46642   -83.84    8.3699   113.83  0.071042    58.76    0.6097   -39.79
        500   0.45327   -86.13    8.1413   112.39   0.07265    58.54     0.598   -40.32
        550   0.42419   -91.63    7.6253   108.88  0.076294    58.12   0.56888   -41.50
        600   0.40007   -96.56    7.1491   105.88  0.080103    57.97   0.54616   -42.46
        650   0.37912  -101.35    6.7162   103.12  0.083761    57.90   0.52628   -43.31
        700   0.35941  -105.87    6.3362   100.51  0.087256    57.94   0.50805   -44.03
        750   0.34302  -110.28    5.9871    98.15  0.090778    58.06   0.49197   -44.59
        800   0.32846  -114.50    5.6805    95.92   0.09433    58.23   0.47843   -45.20
        850   0.31481  -118.78    5.3982    93.78  0.097844    58.39   0.46518   -45.76
        900   0.30272  -122.78    5.1427    91.80    0.1014    58.59   0.45456   -46.27
        950   0.29278  -126.53    4.9123    89.88    0.1049    58.85   0.44467   -46.84
       1000   0.28307  -130.25    4.6994    88.06   0.10848    59.08   0.43597   -47.25
       1050   0.27544  -133.98    4.5012    86.32   0.11207    59.35   0.42783   -47.71
       1100   0.26815  -137.68    4.3229    84.66   0.11577    59.54   0.42102   -48.21
       1150   0.26219  -141.19    4.1572    83.05   0.11944    59.72   0.41443   -48.67
       1200   0.25605  -144.69    4.0049    81.50   0.12319    59.93   0.40899   -49.24
       1250   0.25127  -147.99    3.8628    79.98   0.12698    60.10   0.40391   -49.78
       1300   0.24667  -151.12    3.7327    78.53   0.13075    60.27   0.39972   -50.28
       1350   0.24327  -154.35    3.6106    77.11   0.13456    60.42   0.39532   -50.87
       1400   0.24042  -157.66    3.4977    75.71    0.1384    60.55   0.39094   -51.40
       1450   0.23754  -160.73    3.3912    74.35   0.14232    60.67   0.38746   -51.96
       1500   0.23548  -163.89    3.2894    73.00   0.14627    60.74   0.38397   -52.67
       1550     0.233  -166.65     3.197    71.71   0.15028    60.79   0.38125   -53.28
       1600   0.23144  -169.45     3.109    70.47   0.15427    60.88   0.37901   -53.92
       1650   0.23025  -172.20    3.0268    69.22   0.15838    60.92   0.37659   -54.57
       1700   0.22961  -174.92    2.9491    67.99   0.16249    60.96   0.37436   -55.18
       1750   0.22929  -177.67    2.8759    66.79   0.16655    60.95   0.37185   -55.89
       1800   0.22996   179.64    2.8074    65.58   0.17069    60.95   0.36917   -56.64
       1850   0.22911   177.18    2.7417    64.39   0.17494    60.93   0.36832   -57.37
       1900   0.22882   174.75    2.6772    63.22   0.17916    60.84   0.36694   -58.28
       1950   0.22853   172.26    2.6178    62.11   0.18339    60.79   0.36523   -58.98
       2000   0.23039   170.16    2.5601    61.01    0.1876    60.71   0.36424   -59.73
       2050   0.23131   167.81    2.5052    59.94   0.19171    60.67   0.36192   -60.49
       2100    0.2337   165.72    2.4552    58.90    0.1961    60.63    0.3603   -61.27
       2150   0.23516   163.29    2.4086    57.86   0.20068    60.54   0.35971   -62.19
       2200   0.23596   161.10    2.3661    56.78   0.20528    60.38   0.35802   -63.06
       2250   0.23573   159.06    2.3229    55.68   0.20973    60.20   0.35885   -63.89
       2300   0.23752   156.91    2.2781    54.65   0.21415    60.02   0.35776   -64.81
       2350   0.24091   155.17    2.2364    53.64   0.21836    59.87   0.35616   -65.63
       2400   0.24239   153.40    2.1978    52.67   0.22286    59.72   0.35587   -66.55
       2450   0.24507   151.36     2.161    51.66   0.22728    59.53   0.35408   -67.51
       2500   0.24585   149.47    2.1255    50.68   0.23194    59.37   0.35439   -68.43
       2600   0.25051   146.16     2.059    48.77   0.24109    58.96   0.35347   -70.55
       2700   0.25836   142.91    1.9986    46.94   0.25053    58.61   0.35146   -72.34
       2800   0.26228   139.27    1.9421    45.04   0.26027    58.11   0.35154   -74.34
       2900   0.26812   136.02     1.891    43.22    0.2699    57.62   0.35057   -76.35
       3000    0.2751   133.01    1.8433    41.43   0.27989    57.08   0.34909   -78.20
       3100    0.2787   130.07    1.7975    39.61   0.28992    56.42   0.34981   -80.34
       3200   0.28352   127.38    1.7532    37.87   0.29999    55.77   0.35077   -82.47
       3300   0.29148   124.87    1.7132    36.17   0.31007    55.14   0.35031   -84.47
       3400   0.29645   122.33    1.6749    34.51   0.31993    54.38   0.35085   -86.87
       3500   0.30124   119.73    1.6391    32.84   0.32996    53.60   0.35192   -89.34
       3600   0.31047   117.49    1.6066    31.27   0.34024    52.95   0.35147   -91.26
       3700   0.31604   115.12    1.5749    29.65    0.3507    52.16   0.35121   -93.65
       3800   0.32167   112.62    1.5441    28.05     0.361    51.26   0.35236   -96.38
       3900   0.33055   110.50    1.5159    26.52   0.37159    50.46   0.35272   -98.46
       4000   0.33593   108.47    1.4888    25.01   0.38199    49.61   0.35302  -100.66
       4100   0.34158   106.24    1.4625    23.43   0.39229    48.66   0.35395  -103.41
       4200   0.35039   104.24    1.4383    21.93   0.40282    47.73    0.3548  -105.84
       4300   0.35763   102.35    1.4149    20.48   0.41345    46.81   0.35511  -108.11
       4400   0.36102   100.22      1.39    19.05   0.42349    45.78   0.35604  -110.78
       4500   0.37131    98.36    1.3699    17.60   0.43424    44.81   0.35781  -113.24
       4600   0.37814    96.67     1.349    16.22   0.44453    43.81   0.35878  -115.60
       4700   0.38087    94.79    1.3273    14.85    0.4543    42.76   0.35936  -118.27
       4800   0.39069    93.02    1.3089    13.56   0.46501    41.73   0.36052  -120.78
       4900   0.39834    91.33    1.2897    12.19   0.47522    40.66   0.36219  -123.33
       5000    0.4009    89.69     1.271    10.89   0.48471    39.58   0.36355  -126.11
       5200   0.41764    86.53    1.2381     8.42   0.50538    37.38   0.36565  -130.77
       5400    0.4281    83.32    1.2044     5.92    0.5238    35.09   0.36967  -136.40
       5600   0.43929    80.23    1.1738     3.59   0.54217    32.79   0.37264  -141.56
       5800   0.45625    77.47    1.1471     1.23   0.56021    30.38   0.37784  -146.57
       6000   0.46465    74.63     1.118    -0.89    0.5756    28.10   0.37995  -152.23

