! Filename:  P:\Prog\Test\Noise\ATS_data\Testdata_Net\03 Spar\BFU550A_APG2013_35_C05_05p0V_001mA_SP_CM01_D.s2p
! Date/Time: Tue 16/Apr/2013 15:10:17
! BFU550A_APG2013_35_C05_05p0V_1to35mA_SP_CM01_Bias1_R.s2p
! MDIF S-parameter v. bias file
! BFU550A_APG2013_35_C05_05p0V_1to35mA_SP_CM01
! Date/time Mon Apr 15 15:41:37 2013
! bias mode 1
! bias variable = I_out
! VAR bias_var= 1
! VAR V_out= 5.0010
! VAR I_out= 1.0000
! VAR V_in= 0.7830
! VAR I_in= 0.0103
! Device data file deembeded for feedlines and parallel
! Original file: \03 Spar\BFU550A_APG2013_35_C05_05p0V_001mA_SP_CM01_R.s2p
! Feed-files: PR017V01_150413_Feed1.s2p, PR017V01_150413_Feed2.s2p
! Parallel-file: PR017V01_150413_Par.s2p
# MHz S MA R 50
!  Freq-MHz   S11-mag  S11-arg   S21-mag  S21-arg   S12-mag  S12-arg   S22-mag  S22-arg
         40    0.9634    -4.05    3.4973   176.60  0.010116    87.62    0.9978    -2.28
         50   0.96161    -5.12     3.477   175.57  0.012716    86.30   0.99796    -2.95
         60   0.96084    -6.09    3.4724   174.19  0.015269    85.85   0.99692    -3.42
         70   0.96051    -7.12    3.4838   173.61  0.017762    85.16   0.99617    -3.97
         80   0.95946    -8.16    3.4867   172.53  0.020312    84.55   0.99556    -4.55
         90   0.95838    -9.15    3.4532   171.43  0.022766    83.78   0.99455    -5.12
        100   0.95721   -10.15    3.4544   170.68  0.025263    83.18   0.99338    -5.68
        120   0.95446   -12.24     3.479   168.88  0.030191    81.92   0.99124    -6.78
        140   0.95152   -14.23    3.4598   167.19  0.035038    80.64   0.98839    -7.87
        160   0.94813   -16.25     3.443   165.34  0.039986    79.20   0.98581    -8.96
        180   0.94438   -18.20    3.4118   163.60  0.044757    77.91   0.98165   -10.06
        200   0.94008   -20.20    3.3917   161.86   0.04945    76.66   0.97831   -11.14
        220   0.93576   -22.21    3.4055   160.16  0.053969    75.58   0.97362   -12.18
        240   0.93027   -24.21    3.3964   158.37  0.058491    74.33   0.96961   -13.21
        260   0.92569   -26.13    3.3642   156.65  0.062986    73.13   0.96531   -14.24
        280   0.92067   -27.99    3.3235   155.04  0.067318    71.93   0.96074   -15.26
        300   0.91452   -29.94    3.3082   153.34  0.071487    70.75   0.95501   -16.27
        320   0.90837   -31.96    3.3118   151.80   0.07565    69.61   0.94951   -17.26
        340   0.90192   -33.82    3.2906   150.13   0.07972    68.46   0.94395   -18.22
        360   0.89612   -35.70    3.2657   148.58  0.083688    67.37   0.93904   -19.13
        380   0.88938   -37.50    3.2218   146.90  0.087468    66.23   0.93251   -20.10
        400   0.88294   -39.38    3.2064   145.47  0.091197    65.23   0.92691   -20.93
        420    0.8756   -41.30    3.1951   143.86  0.094906    64.15   0.92115   -21.86
        433   0.87077   -42.46    3.1756   142.88  0.097217    63.49   0.91756   -22.37
        440   0.86843   -43.12    3.1707   142.34  0.098461    63.11   0.91563   -22.71
        460   0.86172   -44.96    3.1473   140.90   0.10192    62.05   0.90998   -23.61
        480   0.85478   -46.71    3.1108   139.38   0.10519    61.03   0.90309   -24.47
        500   0.84668   -48.55    3.0978   137.93   0.10838    60.07   0.89691   -25.28
        550   0.82708   -53.06    3.0391   134.28   0.11569    57.63   0.87976   -27.33
        600    0.8087   -57.38    2.9838   130.84    0.1226    55.43   0.86463   -29.25
        650    0.7901   -61.44    2.8965   127.53   0.12908    53.35   0.85053   -31.01
        700   0.77032   -65.68    2.8467   124.22   0.13441    51.29   0.83425   -32.84
        750   0.75266   -69.59    2.7663   121.14   0.13961    49.45    0.8197   -34.36
        800   0.73375   -73.63    2.7145   118.09   0.14414    47.69   0.80529   -35.96
        850   0.71453   -77.56    2.6504   115.05   0.14819    45.97   0.79094   -37.45
        900    0.6968   -81.34    2.5893   112.22   0.15227    44.41    0.7801   -38.77
        950   0.68038   -85.11     2.534   109.42   0.15456    42.92   0.76402   -40.35
       1000   0.66467   -88.67    2.4715   106.76   0.15745    41.57   0.75293   -41.56
       1050   0.64876   -92.28      2.41   104.13   0.15942    40.38   0.73963   -42.78
       1100   0.63357   -95.82    2.3555   101.62   0.16128    39.20   0.72827   -44.01
       1150    0.6193   -99.35    2.3014    99.19   0.16362    38.01   0.72066   -45.03
       1200    0.6045  -102.74    2.2529    96.76   0.16419    37.06    0.7086   -46.32
       1250   0.59169  -106.06    2.2007    94.46   0.16565    36.14   0.70089   -47.32
       1300   0.57924  -109.32    2.1574    92.23   0.16577    35.35   0.69105   -48.48
       1350   0.56799  -112.60    2.1086    90.04   0.16588    34.73   0.68104   -49.50
       1400   0.55673  -115.93    2.0652    87.91   0.16604    34.04   0.67336   -50.52
       1450   0.54641  -119.04    2.0199    85.82   0.16605    33.55   0.66607   -51.44
       1500   0.53613  -122.25    1.9779    83.75   0.16591    33.06   0.65887   -52.48
       1550   0.52694  -125.28    1.9399    81.78   0.16559    32.70   0.65268   -53.44
       1600   0.51864  -128.34    1.9028    79.94   0.16448    32.60   0.64516   -54.47
       1650   0.51069  -131.35    1.8666    78.08   0.16384    32.51   0.63884   -55.40
       1700   0.50326  -134.35    1.8309    76.22   0.16266    32.83   0.63046   -56.26
       1750   0.49623  -137.38    1.7956    74.44   0.16228    32.68    0.6272   -57.11
       1800   0.49062  -140.39    1.7628    72.63   0.16134    32.86   0.62152   -58.07
       1850   0.48463  -143.15    1.7305    70.92   0.16085    33.00   0.61924   -58.94
       1900   0.47951  -146.06    1.6991    69.28   0.15981    33.43   0.61417   -59.99
       1950    0.4737  -148.85     1.669    67.66   0.15922    33.88   0.61031   -60.79
       2000   0.47032  -151.72    1.6404    66.06   0.15834    34.58   0.60606   -61.67
       2050   0.46599  -154.46    1.6117    64.57   0.15751    35.29   0.60167   -62.55
       2100   0.46354  -157.21    1.5855    62.99   0.15703    36.12   0.59832   -63.39
       2150   0.45952  -160.03    1.5615    61.50   0.15676    36.91   0.59673   -64.38
       2200    0.4567  -162.67    1.5386    60.03   0.15669    37.86   0.59324   -65.36
       2250   0.45406  -165.20    1.5159    58.54   0.15674    38.72   0.59307   -66.23
       2300   0.45182  -167.97    1.4906    57.17   0.15713    40.09   0.58865   -67.21
       2350    0.4516  -170.61    1.4668    55.79   0.15673    40.90   0.58884   -68.16
       2400   0.45035  -173.08    1.4451    54.46   0.15758    42.28   0.58625   -69.12
       2450   0.44861  -175.67    1.4246    53.10    0.1585    43.44   0.58398   -70.10
       2500   0.44709  -178.04    1.4039    51.76    0.1592    44.70   0.58451   -71.09
       2600   0.44683   177.09    1.3651    49.26   0.16329    47.55   0.58027   -73.21
       2700   0.44954   172.27    1.3284    46.88   0.16844    50.23   0.57742   -75.10
       2800   0.44919   167.58    1.2944    44.48   0.17463    52.66   0.57718   -77.20
       2900    0.4511   163.00    1.2623    42.20   0.18224    54.97   0.57573   -79.36
       3000   0.45515   158.57    1.2313    40.02   0.19154    57.02     0.574   -81.47
       3100   0.45663   154.33    1.2027    37.90   0.20231    58.67   0.57348   -83.71
       3200   0.45958   150.19    1.1738    35.90   0.21417    59.94   0.57354   -85.90
       3300   0.46598   146.27    1.1469    33.89    0.2264    61.24   0.57406   -88.34
       3400   0.46956   142.39    1.1217    32.04    0.2399    61.83   0.57406   -90.76
       3500   0.47182   138.53    1.0979    30.25   0.25463    62.01   0.57308   -93.16
       3600      0.48   134.96    1.0746    28.55   0.26925    62.33   0.57352   -95.44
       3700    0.4847   131.35    1.0524    26.88   0.28485    62.21   0.57291   -97.94
       3800   0.48831   127.72    1.0317    25.25   0.30054    61.78   0.57358  -100.64
       3900   0.49644   124.36    1.0114    23.79    0.3169    61.32   0.57339  -103.07
       4000   0.50085   121.12   0.99226    22.40   0.33334    60.66   0.57312  -105.45
       4100   0.50424   117.80   0.97391    20.87   0.35003    59.70    0.5725  -108.23
       4200   0.51244   114.74   0.95627    19.56   0.36681    58.80   0.57301  -110.98
       4300   0.51821   111.78   0.94028    18.35   0.38378    57.85   0.57348  -113.64
       4400   0.51997   108.61   0.92377    17.16   0.39975    56.47   0.57111  -116.17
       4500   0.52844   105.81   0.91028    15.97   0.41662    55.30   0.57228  -118.93
       4600   0.53385   103.17   0.89594    14.91   0.43293    53.98   0.57113  -121.56
       4700   0.53397   100.40   0.88196    13.89   0.44833    52.54   0.56957  -124.27
       4800   0.54197    97.76   0.87108    12.98    0.4645    51.12   0.56852  -126.99
       4900   0.54728    95.23   0.85882    12.01   0.48048    49.73   0.56955  -129.87
       5000   0.54685    92.81   0.84792    11.06   0.49479    48.21   0.56886  -132.65
       5200   0.55843    88.15    0.8312     9.47   0.52456    45.05   0.56355  -137.76
       5400   0.56232    83.63    0.8133     7.85   0.55136    41.87   0.56347  -143.65
       5600   0.56626    79.42   0.80028     6.38    0.5758    38.66   0.55984  -148.88
       5800    0.5762    75.65    0.7902     4.85   0.59901    35.34   0.55702  -154.17
       6000   0.57625    71.99   0.77913     3.53   0.61814    32.26   0.55346  -159.75

