! Filename:  P:\Prog\Test\Noise\ATS_data\Testdata_Net\03 Spar\BFU550A_APG2013_35_C05_05p0V_002mA_SP_CM01_D.s2p
! Date/Time: Tue 16/Apr/2013 15:10:27
! BFU550A_APG2013_35_C05_05p0V_1to35mA_SP_CM01_Bias2_R.s2p
! MDIF S-parameter v. bias file
! BFU550A_APG2013_35_C05_05p0V_1to35mA_SP_CM01
! Date/time Mon Apr 15 15:41:37 2013
! VAR V_out= 5.0010
! VAR I_out= 2.0000
! VAR V_in= 0.7990
! VAR I_in= 0.0208
! Device data file deembeded for feedlines and parallel
! Original file: \03 Spar\BFU550A_APG2013_35_C05_05p0V_002mA_SP_CM01_R.s2p
! Feed-files: PR017V01_150413_Feed1.s2p, PR017V01_150413_Feed2.s2p
! Parallel-file: PR017V01_150413_Par.s2p
# MHz S MA R 50
!  Freq-MHz   S11-mag  S11-arg   S21-mag  S21-arg   S12-mag  S12-arg   S22-mag  S22-arg
         40   0.92634    -5.55    6.7099   175.23 0.0098676    86.90   0.99579    -3.27
         50   0.92447    -6.96    6.6661   174.04  0.012407    85.74   0.99564    -4.17
         60   0.92312    -8.29    6.6495   172.28  0.014949    84.74   0.99321    -4.91
         70   0.92155    -9.69    6.6581   171.37  0.017364    83.98   0.99144    -5.70
         80   0.91946   -11.09    6.6476   170.00  0.019824    83.17   0.98979    -6.51
         90   0.91685   -12.41    6.5754   168.64  0.022199    82.21   0.98737    -7.33
        100   0.91467   -13.76      6.57   167.58  0.024587    81.49    0.9846    -8.11
        120   0.90816   -16.58    6.5899   165.16  0.029298    79.89   0.97949    -9.65
        140   0.90168   -19.22    6.5253   162.92  0.033868    78.33    0.9728   -11.17
        160   0.89417   -21.88    6.4487   160.68  0.038518    76.66   0.96654   -12.67
        180   0.88626   -24.48    6.3644   158.42  0.042895    75.13   0.95757   -14.17
        200   0.87767   -27.05     6.292   156.27   0.04716    73.66   0.94941   -15.60
        220   0.86821   -29.69    6.2813   154.09  0.051195    72.43   0.93981   -16.96
        240   0.85778   -32.26    6.2194   151.92  0.055184    71.01   0.93113   -18.30
        260   0.84807   -34.71    6.1284   149.80  0.059078    69.67   0.92169   -19.60
        280   0.83834   -37.06    6.0248   147.90  0.062784    68.36   0.91206   -20.90
        300   0.82676   -39.54    5.9609   145.86  0.066278    67.16   0.90067   -22.10
        320   0.81523   -42.05    5.9181   143.96  0.069726    65.95   0.89025   -23.31
        340   0.80388   -44.37    5.8358   142.05  0.072991    64.76   0.87952   -24.45
        360     0.793   -46.66    5.7504   140.24  0.076225    63.69   0.86982   -25.52
        380   0.78127   -48.83    5.6449   138.40  0.079161    62.59    0.8582   -26.62
        400   0.76969   -51.13    5.5814   136.67  0.082087    61.66   0.84803   -27.53
        420   0.75776   -53.42    5.5117   134.86  0.084887    60.64   0.83768   -28.56
        433   0.74979   -54.80    5.4552   133.80  0.086671    60.05   0.83141   -29.12
        440    0.7458   -55.58    5.4319   133.19  0.087588    59.68   0.82772   -29.49
        460   0.73454   -57.69    5.3489   131.59  0.090165    58.77     0.818   -30.45
        480    0.7235   -59.75    5.2575   129.98  0.092499    57.87   0.80687   -31.34
        500   0.71077   -61.88    5.1902   128.39   0.09482    57.06     0.797   -32.17
        550   0.68204   -67.02     5.005   124.50  0.099908    55.08   0.77071   -34.23
        600   0.65548   -71.78    4.8197   120.95   0.10469    53.46   0.74822   -36.03
        650    0.6308   -76.27    4.6166   117.66   0.10913    51.97   0.72773   -37.65
        700   0.60531   -80.79    4.4539   114.40   0.11265    50.65   0.70635   -39.25
        750   0.58368   -84.96    4.2736   111.46   0.11617    49.55   0.68746   -40.53
        800   0.56169   -89.19    4.1245   108.58   0.11923    48.60   0.66964   -41.84
        850   0.54065   -93.27    3.9736   105.79   0.12207    47.72    0.6525   -43.05
        900   0.52163   -97.15    3.8333   103.20   0.12486    46.96   0.63898   -44.13
        950   0.50427  -100.98    3.7025   100.70   0.12677    46.44    0.6226   -45.30
       1000   0.48814  -104.57    3.5752    98.33   0.12903    45.96   0.61019   -46.22
       1050   0.47325  -108.26    3.4525    96.04   0.13088    45.66   0.59688   -47.12
       1100   0.45905  -111.80    3.3416    93.85   0.13278    45.39    0.5856   -48.01
       1150   0.44646  -115.33    3.2359    91.75   0.13486    45.06   0.57655   -48.82
       1200   0.43365  -118.71    3.1381    89.69   0.13639    45.02   0.56614   -49.72
       1250   0.42275  -122.00    3.0433    87.71    0.1382    44.93   0.55791   -50.50
       1300   0.41258  -125.22    2.9578    85.82   0.13965    45.00   0.54966   -51.31
       1350    0.4035  -128.45    2.8741    83.97   0.14119    45.15   0.54125   -52.07
       1400   0.39488  -131.76    2.7966    82.17   0.14272    45.26   0.53403   -52.82
       1450   0.38703  -134.84    2.7215    80.42   0.14434    45.48   0.52746   -53.52
       1500   0.37963  -138.05    2.6499    78.68   0.14602    45.67   0.52134   -54.33
       1550   0.37261  -140.93    2.5848    77.01   0.14772    45.94   0.51608   -55.06
       1600   0.36696  -143.94    2.5223    75.45   0.14929    46.35   0.51073   -55.82
       1650   0.36151  -146.84     2.463    73.87   0.15108    46.73   0.50581   -56.54
       1700   0.35673  -149.77     2.406    72.32   0.15292    47.29   0.50025   -57.19
       1750   0.35249  -152.72    2.3518    70.80    0.1548    47.59   0.49658   -57.92
       1800   0.34933  -155.65    2.3008    69.28   0.15674    48.05   0.49206   -58.71
       1850   0.34539  -158.27    2.2518    67.82   0.15888    48.45   0.48984   -59.44
       1900   0.34239  -161.01    2.2036    66.40   0.16104    48.90   0.48657   -60.35
       1950   0.33898  -163.74    2.1586    65.03    0.1633    49.37   0.48331   -61.04
       2000   0.33821  -166.41    2.1155    63.67   0.16563    49.87   0.48073   -61.77
       2050   0.33628  -169.05    2.0734    62.38   0.16794    50.40   0.47716   -62.52
       2100   0.33573  -171.59    2.0349    61.07   0.17061    50.93   0.47457   -63.26
       2150    0.3344  -174.30    1.9995    59.80   0.17342    51.40   0.47323   -64.15
       2200   0.33304  -176.74    1.9668    58.51   0.17637    51.86   0.47042   -65.01
       2250   0.33145  -179.08    1.9334    57.21   0.17929    52.22   0.47072   -65.79
       2300   0.33129   178.32     1.898    55.98    0.1825    52.71   0.46815   -66.67
       2350   0.33269   175.94    1.8648    54.79   0.18511    53.09   0.46694   -67.50
       2400   0.33302   173.70    1.8349    53.63   0.18846    53.56   0.46568   -68.38
       2450   0.33342   171.37    1.8062    52.43   0.19177    53.92   0.46352   -69.29
       2500   0.33308   169.16    1.7779    51.25   0.19512    54.35   0.46378   -70.18
       2600   0.33538   164.87    1.7249    49.04   0.20285    55.12   0.46138   -72.17
       2700   0.34106   160.59    1.6763    46.90     0.211    55.82     0.459   -73.89
       2800   0.34298   156.31    1.6305    44.73   0.21961    56.33   0.45889   -75.84
       2900   0.34688   152.25    1.5892    42.65   0.22862    56.78   0.45777   -77.82
       3000   0.35288   148.36    1.5497    40.63   0.23835    57.13   0.45634   -79.71
       3100   0.35538   144.71    1.5123    38.60   0.24861    57.28   0.45664   -81.82
       3200   0.35971   141.20     1.476    36.70   0.25921    57.31   0.45737   -83.87
       3300   0.36719   137.86    1.4421    34.78   0.26995    57.40   0.45761   -86.04
       3400    0.3722   134.60    1.4103    32.96   0.28108    57.18   0.45817   -88.35
       3500   0.37607   131.31    1.3803    31.17   0.29276    56.82   0.45863   -90.69
       3600   0.38509   128.30    1.3521    29.48   0.30449    56.60   0.45884   -92.72
       3700   0.39078   125.27    1.3248    27.75   0.31674    56.15   0.45879   -95.07
       3800   0.39563   122.20    1.2989    26.04   0.32909    55.52   0.45998   -97.70
       3900   0.40475   119.37    1.2744    24.46   0.34184    54.96   0.46055   -99.91
       4000   0.41037   116.72    1.2507    22.91   0.35456    54.29   0.46105  -102.14
       4100   0.41546   113.85    1.2276    21.27   0.36745    53.43   0.46162  -104.83
       4200   0.42457   111.27    1.2061    19.78   0.38043    52.61    0.4628  -107.35
       4300    0.4317   108.84    1.1856    18.33    0.3937    51.77   0.46368  -109.77
       4400   0.43484   106.15    1.1642    16.90   0.40638    50.70   0.46368  -112.33
       4500   0.44489   103.72    1.1463    15.48   0.41975    49.74   0.46565  -114.90
       4600   0.45179   101.52    1.1275    14.15   0.43276    48.68   0.46628  -117.37
       4700   0.45396    99.21    1.1084    12.85   0.44517    47.54    0.4664  -120.01
       4800   0.46369    96.97    1.0928    11.65   0.45849    46.42   0.46723  -122.62
       4900   0.47079    94.79    1.0757    10.38   0.47144    45.28   0.46919  -125.29
       5000   0.47285    92.75    1.0595     9.14   0.48338    44.06   0.47012  -128.03
       5200   0.48852    88.71    1.0317     6.95   0.50899    41.53   0.47011  -132.96
       5400   0.49667    84.74    1.0025     4.73   0.53208    38.92   0.47333  -138.68
       5600   0.50612    80.96   0.97734     2.72   0.55426    36.24   0.47418  -143.90
       5800   0.52076    77.55   0.95586     0.70   0.57582    33.43   0.47663  -149.12
       6000   0.52599    74.21   0.93274    -1.06   0.59404    30.78   0.47691  -154.75

