! Filename:  P:\Prog\Test\Noise\ATS_data\Testdata_Net\03 Spar\BFU550A_APG2013_35_C05_05p0V_035mA_SP_CM01_D.s2p
! Date/Time: Tue 16/Apr/2013 15:10:18
! BFU550A_APG2013_35_C05_05p0V_1to35mA_SP_CM01_Bias8_R.s2p
! MDIF S-parameter v. bias file
! BFU550A_APG2013_35_C05_05p0V_1to35mA_SP_CM01
! Date/time Mon Apr 15 15:41:37 2013
! VAR V_out= 5.0000
! VAR I_out= 35.0000
! VAR V_in= 0.8314
! VAR I_in= 0.3932
! Device data file deembeded for feedlines and parallel
! Original file: \03 Spar\BFU550A_APG2013_35_C05_05p0V_035mA_SP_CM01_R.s2p
! Feed-files: PR017V01_150413_Feed1.s2p, PR017V01_150413_Feed2.s2p
! Parallel-file: PR017V01_150413_Par.s2p
# MHz S MA R 50
!  Freq-MHz   S11-mag  S11-arg   S21-mag  S21-arg   S12-mag  S12-arg   S22-mag  S22-arg
         40   0.36278   -42.33    41.796   156.12   0.00734    78.30   0.88991   -14.77
         50   0.35409   -52.06    39.976   150.99 0.0089786    76.45   0.85976   -17.95
         60   0.34774   -60.44    38.129   146.03  0.010437    74.52   0.82647   -20.61
         70   0.34344   -68.49    36.335   141.87  0.011761    72.95   0.79355   -22.84
         80   0.33788   -76.07    34.541   137.82  0.013004    71.96   0.76149   -24.75
         90   0.33136   -82.64     32.69   134.22  0.014142    71.09   0.73053   -26.24
        100   0.32762   -88.61     31.01   131.09  0.015217    70.50     0.702   -27.51
        120   0.32023   -99.66    27.976   125.51  0.017256    69.76   0.65051   -29.34
        140   0.31465  -108.45     25.28   121.00  0.019112    69.51   0.60764   -30.36
        160   0.30994  -116.14    22.929   117.19  0.020994    69.56    0.5723   -30.92
        180   0.30704  -122.67    20.963   113.98  0.022803    69.82   0.54214   -31.15
        200   0.30431  -128.08    19.258   111.22  0.024562    70.19   0.51794   -31.13
        220   0.30256  -132.78    17.848   108.76  0.026294    70.67   0.49802   -31.07
        240   0.30101  -137.14    16.564   106.62  0.028038    71.18   0.48067   -30.79
        260   0.30018  -140.99    15.468   104.66  0.029782    71.67   0.46646   -30.59
        280   0.29971  -144.31     14.49   102.98  0.031594    72.08   0.45425   -30.31
        300   0.29941  -147.28    13.617   101.43  0.033343    72.51   0.44397   -29.98
        320   0.29847  -149.93    12.844   100.05  0.035129    72.91   0.43477   -29.77
        340   0.29808  -152.52    12.154    98.69  0.036903    73.23   0.42701   -29.46
        360   0.29847  -154.80    11.537    97.50  0.038713    73.58   0.42031   -29.27
        380   0.29801  -156.93    10.967    96.35  0.040507    73.86    0.4139   -29.06
        400   0.29775  -158.94    10.463    95.27  0.042324    74.20   0.40906   -28.82
        420   0.29805  -160.76    9.9943    94.23   0.04418    74.45   0.40414   -28.72
        433   0.29862  -162.01    9.7172    93.61  0.045365    74.59   0.40158   -28.58
        440   0.29872  -162.58    9.5703    93.27   0.04601    74.64    0.4001   -28.55
        460   0.29862  -164.10    9.1743    92.38  0.047822    74.88   0.39648   -28.53
        480   0.29966  -165.60    8.8141    91.48  0.049664    75.06   0.39277   -28.43
        500    0.2995  -167.18    8.4777    90.66  0.051518    75.20   0.39007   -28.38
        550   0.30036  -170.72    7.7573    88.58  0.056007    75.59    0.3822   -28.25
        600   0.30067  -173.66    7.1441    86.78  0.060756    75.84   0.37783   -28.44
        650   0.30241  -176.49    6.6188    85.07  0.065412    75.99   0.37399   -28.74
        700   0.30269  -179.03    6.1672    83.44  0.070104    76.14   0.37085   -29.07
        750   0.30421   178.56    5.7711    81.93  0.074781    76.24   0.36806   -29.41
        800    0.3054   176.31    5.4283    80.46  0.079495    76.24   0.36609   -30.01
        850   0.30711   174.08    5.1223    79.02  0.084224    76.23    0.3633   -30.53
        900    0.3081   171.94    4.8502    77.66  0.088969    76.20   0.36173   -31.13
        950   0.30932   170.03    4.6083    76.30  0.093728    76.11   0.36059   -31.88
       1000   0.30999   168.10    4.3889    74.97  0.098564    76.02   0.35947   -32.50
       1050   0.31176   166.31    4.1881    73.71   0.10337    75.90   0.35863   -33.22
       1100   0.31347   164.51    4.0087    72.46   0.10819    75.74   0.35779   -34.02
       1150   0.31521   162.85     3.843    71.24   0.11305    75.56    0.3565   -34.76
       1200   0.31645   161.10    3.6924    70.04    0.1179    75.36   0.35609   -35.68
       1250   0.31813   159.49    3.5531    68.84   0.12281    75.15   0.35537   -36.55
       1300   0.31886   157.88    3.4256    67.68   0.12772    74.91   0.35542   -37.40
       1350   0.32043   156.35    3.3072    66.53   0.13261    74.66   0.35501   -38.35
       1400    0.3228   154.80    3.1982    65.40   0.13755    74.43   0.35406   -39.20
       1450    0.3242   153.32    3.0965    64.27   0.14249    74.16   0.35375   -40.12
       1500   0.32666   151.80    2.9995    63.15   0.14746    73.87   0.35302   -41.17
       1550   0.32739   150.36    2.9112    62.04   0.15247    73.56   0.35289   -42.13
       1600   0.32888   148.94    2.8276    60.98   0.15746    73.27   0.35314   -43.14
       1650   0.33078   147.56    2.7497    59.90   0.16255    72.96   0.35298   -44.13
       1700   0.33244   146.28    2.6766    58.84   0.16758    72.64   0.35306   -45.09
       1750   0.33479   144.89    2.6074    57.80   0.17256    72.32   0.35242   -46.13
       1800   0.33759   143.64    2.5433    56.75   0.17765    71.99   0.35152   -47.18
       1850   0.33858   142.22    2.4814    55.69   0.18282    71.65   0.35221   -48.26
       1900   0.34007   140.96    2.4213    54.64   0.18791    71.23   0.35223   -49.50
       1950   0.34199   139.59     2.366    53.66   0.19295    70.89   0.35201   -50.51
       2000   0.34421   138.55    2.3121    52.68   0.19797    70.52   0.35232   -51.59
       2050   0.34654   137.36    2.2615    51.72     0.203    70.19   0.35133   -52.62
       2100   0.34918   136.27    2.2142    50.79   0.20819    69.89   0.35079   -53.68
       2150   0.35269   134.99    2.1713    49.85   0.21371    69.52   0.35109   -54.89
       2200   0.35448   133.63    2.1315    48.87   0.21909    69.07    0.3505   -56.03
       2250   0.35477   132.35    2.0908    47.84   0.22436    68.63   0.35213   -57.18
       2300   0.35773   131.13    2.0499    46.90   0.22951    68.19   0.35194   -58.37
       2350   0.36118   130.26    2.0117    45.99   0.23461    67.82   0.35108   -59.43
       2400   0.36284   129.18    1.9758    45.09   0.23984    67.42   0.35159   -60.62
       2450   0.36576   128.00    1.9416    44.16   0.24504    67.01   0.35044   -61.83
       2500   0.36738   126.74    1.9088    43.25   0.25048    66.60   0.35126   -63.01
       2600   0.37217   124.69    1.8471    41.49   0.26102    65.72    0.3515   -65.61
       2700   0.38009   122.83     1.791    39.81   0.27193    64.96   0.35071   -67.87
       2800   0.38448   120.36     1.739    38.03   0.28302    64.02   0.35158   -70.32
       2900   0.39032   118.14    1.6912    36.33   0.29404    63.12    0.3515   -72.77
       3000   0.39756   116.16    1.6477    34.69   0.30545    62.21   0.35096   -75.04
       3100   0.40032   113.98    1.6046    32.97   0.31663    61.16   0.35227   -77.61
       3200   0.40473   111.92    1.5635    31.37   0.32777    60.14   0.35373   -80.16
       3300   0.41168   110.21    1.5273    29.79   0.33905    59.15   0.35352   -82.50
       3400    0.4161   108.25    1.4912    28.24   0.34985    58.06   0.35439   -85.27
       3500   0.41989   106.20    1.4576    26.69   0.36067    56.96   0.35583   -88.11
       3600   0.42822   104.56    1.4279    25.24   0.37199    56.02   0.35575   -90.40
       3700    0.4329   102.63    1.3981    23.74   0.38318    54.93   0.35571   -93.12
       3800   0.43735   100.60    1.3693    22.24   0.39419    53.75     0.357   -96.18
       3900   0.44555    98.92    1.3438    20.84   0.40559    52.68   0.35773   -98.59
       4000   0.44932    97.22     1.318    19.47   0.41657    51.58    0.3581  -101.10
       4100   0.45392    95.26    1.2934    18.01   0.42716    50.38   0.35921  -104.14
       4200   0.46125    93.64     1.271    16.66   0.43832    49.21    0.3602  -106.86
       4300   0.46693    92.04    1.2495    15.35   0.44948    48.04   0.36045  -109.40
       4400   0.46944    90.08    1.2261    14.04   0.45953    46.81   0.36147  -112.33
       4500    0.4778    88.55     1.208    12.72   0.47083    45.62   0.36333  -115.07
       4600   0.48307    87.04     1.189    11.50   0.48131    44.43   0.36431  -117.67
       4700   0.48402    85.33    1.1689    10.27   0.49089    43.20   0.36487  -120.54
       4800   0.49237    83.78    1.1519     9.13   0.50182    41.98   0.36607  -123.31
       4900   0.49844    82.26    1.1347     7.92   0.51201    40.73   0.36758  -126.08
       5000   0.49903    80.73    1.1175     6.77   0.52123    39.49   0.36878  -129.04
       5200   0.51219    77.88    1.0882     4.60   0.54172    36.97   0.37097  -134.12
       5400   0.51878    74.91    1.0578     2.41   0.55893    34.41   0.37435  -140.03
       5600   0.52649    72.07    1.0307     0.42   0.57633    31.88   0.37713  -145.50
       5800   0.53954    69.54    1.0076    -1.64    0.5932    29.26   0.38213  -150.76
       6000   0.54402    66.92    0.9823    -3.42   0.60691    26.80   0.38387  -156.60

