! Filename:  P:\Prog\Test\Noise\ATS_data\Testdata_Net\03 Spar\BFU550A_APG2013_35_C05_05p0V_010mA_SP_CM01_D.s2p
! Date/Time: Tue 16/Apr/2013 15:10:20
! BFU550A_APG2013_35_C05_05p0V_1to35mA_SP_CM01_Bias5_R.s2p
! MDIF S-parameter v. bias file
! BFU550A_APG2013_35_C05_05p0V_1to35mA_SP_CM01
! Date/time Mon Apr 15 15:41:37 2013
! VAR V_out= 5.0000
! VAR I_out= 9.9950
! VAR V_in= 0.8289
! VAR I_in= 0.1066
! Device data file deembeded for feedlines and parallel
! Original file: \03 Spar\BFU550A_APG2013_35_C05_05p0V_010mA_SP_CM01_R.s2p
! Feed-files: PR017V01_150413_Feed1.s2p, PR017V01_150413_Feed2.s2p
! Parallel-file: PR017V01_150413_Par.s2p
# MHz S MA R 50
!  Freq-MHz   S11-mag  S11-arg   S21-mag  S21-arg   S12-mag  S12-arg   S22-mag  S22-arg
         40   0.69775   -14.43    25.091   167.43 0.0086866    83.53   0.97306    -8.80
         50   0.68885   -18.00    24.661   164.54  0.010812    81.61   0.96199   -11.04
         60   0.67904   -21.32     24.31   161.44  0.012834    80.11   0.95069   -13.01
         70   0.67032   -24.79    24.001   158.88  0.014753    78.64   0.93757   -14.95
         80    0.6588   -28.15    23.609   156.02  0.016672    77.33   0.92342   -16.86
         90   0.64629   -31.25    23.086   153.36  0.018434    76.00   0.90707   -18.64
        100   0.63443   -34.38    22.672   150.95  0.020182    74.85   0.89064   -20.30
        120   0.60727   -40.53    21.809   146.14  0.023441    72.68   0.85757   -23.39
        140   0.58138   -46.09    20.823   141.86  0.026375    70.98   0.82307   -26.07
        160   0.55457   -51.39      19.8   137.88  0.029197    69.38   0.78969   -28.44
        180   0.52892   -56.36    18.852   134.24  0.031718    68.14   0.75582   -30.49
        200   0.50368   -60.97    17.931   130.90  0.034085    67.17   0.72502   -32.23
        220   0.48089   -65.36     17.13   127.78  0.036271    66.55   0.69691   -33.72
        240   0.45798   -69.41    16.299   124.95  0.038374    65.91   0.66982   -35.00
        260   0.43787   -73.31    15.538   122.34  0.040347    65.45   0.64516   -36.10
        280   0.41959   -76.94     14.82   120.02    0.0423    65.15   0.62231   -37.03
        300   0.40198   -80.49    14.151   117.80  0.044172    64.96    0.6015   -37.77
        320   0.38625   -83.70     13.53   115.82  0.045985    64.79   0.58209   -38.48
        340   0.37082   -86.78    12.948   113.91  0.047754    64.71   0.56416   -39.01
        360   0.35803   -89.77    12.417   112.20  0.049569    64.71    0.5483   -39.52
        380   0.34505   -92.65    11.905   110.56  0.051283    64.72    0.5327   -39.92
        400   0.33354   -95.36    11.444   109.04  0.053046    64.82   0.51945   -40.18
        420   0.32312   -98.09     11.01   107.56  0.054801    64.88   0.50675   -40.51
        433   0.31637   -99.86    10.747   106.68  0.055908    64.95   0.49921   -40.63
        440   0.31312  -100.75    10.607   106.19  0.056522    64.96   0.49523   -40.72
        460    0.3042  -103.10    10.222   104.93  0.058247    65.06   0.48472   -40.99
        480   0.29649  -105.65    9.8673   103.70  0.059964    65.16   0.47426   -41.16
        500   0.28834  -107.98    9.5348   102.55  0.061662    65.29   0.46543   -41.33
        550   0.27013  -113.87    8.8049    99.72  0.065816    65.66   0.44323   -41.59
        600   0.25657  -118.95    8.1639    97.33  0.070221    66.00   0.42739   -41.84
        650   0.24473  -124.01    7.6056    95.11  0.074573    66.31   0.41374   -42.11
        700   0.23452  -128.74    7.1185    93.04  0.078929    66.59   0.40182   -42.31
        750   0.22631  -133.28    6.6868    91.15   0.08331    66.88   0.39137   -42.45
        800   0.21962  -137.51    6.3095    89.36  0.087765    67.08   0.38306   -42.77
        850   0.21384  -141.96    5.9694    87.63  0.092188    67.24   0.37452   -43.05
        900   0.20841  -146.05    5.6649    86.03  0.096669    67.39   0.36801   -43.34
        950   0.20427  -149.87    5.3921    84.47   0.10116    67.51   0.36251   -43.75
       1000    0.2002  -153.41    5.1433    82.96    0.1057    67.59   0.35743   -44.03
       1050   0.19799  -157.07    4.9141    81.54   0.11024    67.64   0.35293   -44.40
       1100   0.19586  -160.71    4.7086    80.15   0.11483    67.62   0.34904   -44.86
       1150   0.19446  -164.02    4.5189    78.81   0.11943    67.60   0.34494   -45.27
       1200   0.19261  -167.25    4.3454    77.50   0.12405    67.55   0.34212   -45.87
       1250   0.19159  -170.42    4.1843    76.22    0.1287    67.47   0.33924   -46.41
       1300   0.19025  -173.23     4.037    74.99   0.13334    67.38    0.3372   -46.93
       1350   0.19017  -176.13    3.9004    73.77   0.13795    67.25   0.33481   -47.57
       1400   0.19081  -179.13    3.7735    72.57   0.14262    67.13   0.33209   -48.13
       1450    0.1903   178.23    3.6548    71.39   0.14731    66.97   0.33021   -48.76
       1500   0.19121   175.40    3.5417    70.22   0.15202    66.77   0.32805   -49.54
       1550   0.19102   172.98    3.4382    69.09   0.15675    66.58   0.32668   -50.22
       1600   0.19133   170.62    3.3403    68.02   0.16146    66.39   0.32571   -50.95
       1650    0.1921   168.21     3.249    66.92   0.16622    66.17   0.32439   -51.67
       1700   0.19355   166.00    3.1631    65.84   0.17097    65.95   0.32336   -52.38
       1750   0.19485   163.69    3.0826    64.77   0.17564    65.69   0.32164   -53.17
       1800    0.1972   161.51    3.0073    63.70   0.18039    65.44   0.31981   -54.00
       1850   0.19764   159.48    2.9346    62.64   0.18522    65.18   0.31976   -54.82
       1900    0.1987   157.38    2.8644    61.59   0.18998    64.86   0.31909   -55.86
       1950   0.19978   155.28    2.7987    60.60   0.19464    64.58   0.31804   -56.64
       2000    0.2023   153.68    2.7359    59.61   0.19935    64.29    0.3176   -57.49
       2050   0.20432   151.82    2.6759    58.65   0.20398    64.01   0.31593   -58.32
       2100   0.20742   150.33    2.6208    57.72   0.20878    63.77   0.31471   -59.21
       2150   0.20996   148.19    2.5699    56.78   0.21382    63.48   0.31443   -60.23
       2200   0.21168   146.29    2.5238    55.81   0.21885    63.11   0.31317   -61.18
       2250     0.212   144.62    2.4763    54.80   0.22371    62.74   0.31437   -62.11
       2300   0.21441   142.91    2.4277    53.84   0.22844    62.37   0.31359   -63.11
       2350    0.2185   141.63    2.3825    52.94   0.23306    62.04   0.31215   -64.01
       2400   0.22013   140.27    2.3408    52.04   0.23779    61.70   0.31213   -65.01
       2450   0.22319   138.60    2.3009    51.11   0.24254    61.35   0.31054   -66.07
       2500   0.22484   136.99    2.2622    50.21   0.24747    61.02   0.31103   -67.07
       2600   0.22969   134.36    2.1901    48.46   0.25702    60.28    0.3105   -69.35
       2700   0.23804   131.98    2.1243    46.76   0.26686    59.63   0.30859   -71.28
       2800   0.24243   128.87    2.0635    45.00   0.27688    58.85   0.30884   -73.43
       2900   0.24858   126.16    2.0084    43.31   0.28674    58.08   0.30791   -75.57
       3000   0.25637   123.62    1.9575    41.63   0.29691    57.29   0.30643   -77.49
       3100    0.2595   121.17    1.9077    39.91   0.30691    56.41   0.30729   -79.76
       3200   0.26432   118.85    1.8603    38.28   0.31689    55.53   0.30831   -82.01
       3300    0.2721   116.92    1.8179    36.66   0.32687    54.69   0.30753   -84.05
       3400   0.27718   114.85    1.7767    35.09   0.33651    53.76   0.30807   -86.60
       3500   0.28184   112.61    1.7382    33.51   0.34615    52.83   0.30926   -89.22
       3600   0.29057   110.81    1.7036    32.01   0.35616    52.02    0.3085   -91.17
       3700   0.29604   108.80      1.67    30.46   0.36612    51.09   0.30815   -93.66
       3800   0.30137   106.57    1.6375    28.91   0.37596    50.09   0.30928   -96.55
       3900   0.30991   104.84    1.6078    27.45   0.38601    49.17   0.30939   -98.64
       4000   0.31498   103.15    1.5792    25.99    0.3958    48.24   0.30951  -100.91
       4100   0.32029   101.14    1.5515    24.46   0.40538    47.20   0.31049  -103.78
       4200   0.32899    99.49    1.5257    23.02   0.41527    46.21   0.31122  -106.25
       4300   0.33587    97.89    1.5012    21.61   0.42517    45.21    0.3112  -108.53
       4400   0.33942    95.99     1.475    20.21   0.43432    44.15   0.31222  -111.30
       4500   0.34928    94.45     1.454    18.79   0.44435    43.14   0.31385  -113.79
       4600   0.35539    92.97    1.4319    17.43   0.45382    42.10   0.31472  -116.16
       4700   0.35778    91.34    1.4097    16.09   0.46273    41.04   0.31539  -118.91
       4800   0.36771    89.78    1.3905    14.81   0.47257    39.99   0.31646  -121.44
       4900   0.37521    88.30    1.3702    13.45   0.48187    38.92   0.31795  -124.00
       5000    0.3775    86.88    1.3511    12.16   0.49049    37.84   0.31926  -126.86
       5200   0.39344    84.14    1.3164     9.69   0.50933    35.65   0.32163  -131.46
       5400   0.40375    81.31     1.282     7.18    0.5259    33.41   0.32555  -137.17
       5600   0.41528    78.50    1.2504     4.84   0.54258    31.19   0.32884  -142.36
       5800   0.43206    76.12    1.2223     2.42   0.55895    28.87   0.33448  -147.31
       6000   0.44047    73.54    1.1922     0.25   0.57283    26.67   0.33695  -153.06

