! Filename:  P:\Prog\Test\Noise\ATS_data\Testdata_Net\03 Spar\BFU550A_APG2013_35_C05_03p3V_035mA_SP_CM01_D.s2p
! Date/Time: Tue 16/Apr/2013 15:10:18
! BFU550A_APG2013_35_C05_03p3V_1to35mA_SP_CM01_Bias8_R.s2p
! MDIF S-parameter v. bias file
! BFU530A_APG2013_33_A09_08p0V_015mA_SP_CM01
! Date/time Mon Apr 15 14:22:32 2013
! VAR V_out= 3.3000
! VAR I_out= 35.0000
! VAR V_in= 0.8550
! VAR I_in= 0.4168
! Device data file deembeded for feedlines and parallel
! Original file: \03 Spar\BFU550A_APG2013_35_C05_03p3V_035mA_SP_CM01_R.s2p
! Feed-files: PR017V01_150413_Feed1.s2p, PR017V01_150413_Feed2.s2p
! Parallel-file: PR017V01_150413_Par.s2p
# MHz S MA R 50
!  Freq-MHz   S11-mag  S11-arg   S21-mag  S21-arg   S12-mag  S12-arg   S22-mag  S22-arg
         40   0.34278   -59.02    39.148   152.50 0.0081136    75.43   0.84732   -16.29
         50   0.34788   -70.74    36.978   147.09 0.0096993    72.67   0.81104   -19.47
         60   0.35269   -81.15    34.968   141.71  0.011188    70.67   0.77419   -22.09
         70   0.35837   -90.00    32.907   137.22  0.012463    69.03   0.73813   -24.11
         80   0.36298   -97.88    30.925   133.14  0.013635    67.93   0.70446   -25.74
         90   0.36684  -104.68     29.04   129.54  0.014725    67.10   0.67314   -26.91
        100   0.37062  -110.57    27.331   126.35   0.01575    66.64   0.64512   -27.86
        120   0.37705  -120.70      24.3   120.95  0.017629    66.22   0.59644   -29.03
        140   0.38143  -128.50    21.741   116.57  0.019394    66.26   0.55778   -29.46
        160   0.38505  -134.90    19.565   113.00  0.021176    66.61   0.52725   -29.52
        180   0.38821  -140.29    17.774   109.95  0.022884    67.11    0.5018   -29.34
        200    0.3906  -144.62    16.255   107.37  0.024572    67.75   0.48192   -29.00
        220    0.3924  -148.36    15.002   105.05  0.026224    68.55   0.46594   -28.71
        240   0.39426  -151.74    13.884   103.05  0.027928    69.16   0.45221   -28.27
        260   0.39561  -154.63    12.931   101.20  0.029631    69.75   0.44119   -27.95
        280   0.39722  -157.24    12.091    99.62  0.031384    70.40   0.43181   -27.59
        300   0.39848  -159.52    11.343    98.15  0.033101    70.99   0.42413   -27.24
        320   0.39934  -161.64    10.683    96.83  0.034805    71.45   0.41716   -27.02
        340   0.40031  -163.52    10.098    95.54  0.036589    71.94   0.41139   -26.71
        360   0.40127  -165.32    9.5746    94.39  0.038348    72.41   0.40653   -26.55
        380   0.40206  -166.97    9.0942    93.29  0.040103    72.75    0.4018   -26.39
        400   0.40271  -168.54    8.6669    92.25  0.041889    73.18   0.39839   -26.22
        420   0.40368  -169.93    8.2763    91.23  0.043713    73.52   0.39483   -26.17
        433    0.4042  -170.88    8.0421    90.62   0.04488    73.75   0.39295   -26.08
        440   0.40467  -171.34    7.9183    90.29  0.045513    73.81   0.39188   -26.06
        460   0.40498  -172.60    7.5884    89.41  0.047315    74.10   0.38934   -26.11
        480   0.40613  -173.74    7.2856    88.53  0.049126    74.35   0.38662   -26.09
        500   0.40674  -175.00     7.007    87.70  0.050929    74.57   0.38478   -26.12
        550   0.40802  -177.77    6.4013    85.66  0.055405    75.15   0.37904   -26.18
        600   0.40923   179.83    5.8918    83.83  0.060112    75.49   0.37602   -26.56
        650   0.41121   177.48    5.4564    82.10  0.064703    75.80   0.37351   -27.05
        700   0.41213   175.35    5.0825    80.43  0.069363    76.04    0.3714   -27.57
        750   0.41376   173.33     4.755    78.86  0.074047    76.23   0.36959   -28.10
        800     0.415   171.44    4.4709    77.35  0.078748    76.32   0.36837   -28.86
        850    0.4171   169.54    4.2188    75.85   0.08344    76.41    0.3663   -29.55
        900   0.41831   167.71    3.9944    74.42  0.088237    76.47   0.36535   -30.32
        950   0.41941   166.04    3.7949    72.99  0.092989    76.46    0.3647   -31.22
       1000    0.4203   164.34    3.6147    71.58  0.097824    76.43     0.364   -32.00
       1050   0.42221   162.74    3.4491    70.25   0.10268    76.38   0.36358   -32.87
       1100   0.42377   161.15    3.3013    68.94   0.10756    76.27   0.36311   -33.82
       1150   0.42575   159.57     3.165    67.65   0.11244    76.15    0.3622   -34.69
       1200   0.42673   158.04    3.0413    66.37   0.11738    76.01   0.36218   -35.75
       1250   0.42857   156.58    2.9271    65.10   0.12233    75.85   0.36175   -36.77
       1300   0.42918   155.12    2.8226    63.85   0.12735    75.66   0.36199   -37.73
       1350   0.43074   153.72    2.7255    62.64   0.13232    75.45   0.36189   -38.80
       1400   0.43336   152.28    2.6361    61.43   0.13738    75.27   0.36122   -39.80
       1450   0.43463   150.84    2.5529    60.23   0.14241    75.04   0.36117   -40.83
       1500   0.43683   149.45    2.4732    59.03   0.14751    74.78   0.36074   -42.00
       1550   0.43769   148.08     2.401    57.84   0.15269    74.51   0.36074   -43.08
       1600   0.43919   146.74    2.3323    56.72   0.15783    74.25   0.36119   -44.20
       1650   0.44066   145.46    2.2688    55.57    0.1631    73.95   0.36125   -45.32
       1700   0.44252   144.18    2.2083    54.45   0.16828    73.66   0.36149   -46.38
       1750   0.44488   142.86    2.1515    53.35   0.17342    73.37   0.36116   -47.53
       1800   0.44751   141.66    2.0987    52.25    0.1787    73.05   0.36045   -48.70
       1850   0.44852   140.28    2.0487    51.11    0.1841    72.73   0.36127   -49.88
       1900   0.44972   139.01     1.999    50.01   0.18942    72.32   0.36149   -51.21
       1950   0.45127   137.72    1.9534    48.97   0.19469    71.99   0.36145   -52.34
       2000   0.45343   136.69     1.909    47.95   0.19997    71.63    0.3619   -53.51
       2050   0.45587   135.48    1.8676    46.95   0.20521    71.32   0.36109   -54.65
       2100   0.45873   134.42    1.8285    45.98   0.21065    71.02   0.36084   -55.82
       2150   0.46137   133.10    1.7927    44.98   0.21641    70.65   0.36136   -57.12
       2200   0.46305   131.82    1.7601    43.95    0.2221    70.20   0.36093   -58.38
       2250   0.46373   130.55    1.7262    42.89   0.22771    69.75    0.3626   -59.63
       2300   0.46621   129.38    1.6927    41.93    0.2331    69.31   0.36267   -60.92
       2350    0.4696   128.36    1.6611    40.99   0.23845    68.94   0.36201   -62.08
       2400   0.47122   127.30    1.6316    40.04   0.24402    68.53   0.36271   -63.37
       2450    0.4738   126.11    1.6026    39.08    0.2496    68.10   0.36185   -64.70
       2500   0.47518   124.89    1.5758    38.14   0.25541    67.68   0.36274   -65.97
       2600   0.47951   122.74    1.5245    36.34   0.26656    66.76    0.3634   -68.75
       2700   0.48661   120.79    1.4777    34.63    0.2782    65.97   0.36308   -71.21
       2800   0.49081   118.36    1.4341    32.82   0.29003    64.99   0.36419   -73.85
       2900   0.49616   116.08    1.3939    31.12    0.3018    64.03   0.36455   -76.52
       3000   0.50285   114.06    1.3572    29.50   0.31401    63.07   0.36435   -79.03
       3100   0.50508   111.78    1.3215    27.80   0.32594    61.93   0.36574   -81.78
       3200    0.5092   109.68    1.2869    26.21   0.33792    60.84   0.36744   -84.52
       3300   0.51543   107.85    1.2565    24.71   0.34999    59.78   0.36752   -87.05
       3400   0.51901   105.77    1.2257    23.19   0.36145    58.60   0.36847   -89.98
       3500   0.52209   103.61    1.1975    21.69   0.37294    57.41    0.3701   -92.97
       3600   0.52922   101.88    1.1727    20.34   0.38513    56.39   0.37049   -95.47
       3700   0.53334    99.87    1.1469    18.93   0.39699    55.21   0.37067   -98.34
       3800    0.5362    97.78    1.1225    17.54   0.40859    53.93   0.37219  -101.52
       3900   0.54361    95.98    1.1009    16.26   0.42075    52.78   0.37309  -104.15
       4000   0.54638    94.19    1.0794    15.01   0.43235    51.57   0.37355  -106.80
       4100   0.54925    92.12    1.0584    13.68   0.44337    50.26   0.37481  -109.97
       4200   0.55555    90.37    1.0399    12.50   0.45516    49.00   0.37602  -112.84
       4300   0.56007    88.69    1.0219    11.35   0.46682    47.73   0.37635  -115.56
       4400   0.56077    86.68     1.002    10.21   0.47719    46.41    0.3774  -118.59
       4500   0.56849    85.02   0.98753     9.09   0.48895    45.11    0.3795  -121.46
       4600   0.57184    83.42   0.97151     8.04   0.49977    43.82   0.38042  -124.18
       4700    0.5713    81.58   0.95478     7.03   0.50948    42.50   0.38103  -127.15
       4800   0.57824    79.99   0.94144     6.09   0.52072    41.18   0.38245  -130.06
       4900   0.58245    78.41   0.92742     5.09   0.53111    39.84   0.38395  -132.90
       5000   0.58119    76.76   0.91363     4.16   0.54018    38.52   0.38513  -135.92
       5200   0.59136    73.76    0.8913     2.43   0.56082    35.82   0.38708  -141.25
       5400   0.59386    70.71   0.86777     0.71   0.57753    33.11   0.39036  -147.20
       5600   0.59782    67.74   0.84761    -0.82   0.59434    30.44    0.3929  -152.77
       5800   0.60656    65.12   0.83152    -2.45   0.61051    27.68   0.39744  -158.10
       6000   0.60725    62.43    0.8134    -3.76   0.62312    25.13   0.39931  -163.93

