! Filename:  P:\Prog\Test\Noise\ATS_data\Testdata_Net\03 Spar\BFU550A_APG2013_35_C05_12p0V_010mA_SP_CM01_D.s2p
! Date/Time: Tue 16/Apr/2013 15:10:23
! BFU550A_APG2013_35_C05_12p0V_1to35mA_SP_CM01_Bias5_R.s2p
! MDIF S-parameter v. bias file
! BFU550A_APG2013_35_C05_12p0V_1to35mA_SP_CM01
! Date/time Mon Apr 15 17:55:46 2013
! VAR V_out= 12.0010
! VAR I_out= 9.9950
! VAR V_in= 0.7987
! VAR I_in= 0.0901
! Device data file deembeded for feedlines and parallel
! Original file: \03 Spar\BFU550A_APG2013_35_C05_12p0V_010mA_SP_CM01_R.s2p
! Feed-files: PR017V01_150413_Feed1.s2p, PR017V01_150413_Feed2.s2p
! Parallel-file: PR017V01_150413_Par.s2p
# MHz S MA R 50
!  Freq-MHz   S11-mag  S11-arg   S21-mag  S21-arg   S12-mag  S12-arg   S22-mag  S22-arg
         40   0.73047   -12.90    24.155   168.00 0.0084345    81.54   0.96899    -7.75
         50   0.72092   -16.17    23.802   165.20  0.010521    80.19   0.96048   -10.07
         60   0.71188   -19.16    23.449   162.27  0.012513    78.91   0.94968   -11.98
         70   0.70356   -22.28    23.166   159.91  0.014411    77.78   0.93712   -13.80
         80    0.6931   -25.32    22.821   157.27   0.01628    76.75   0.92439   -15.54
         90   0.68148   -28.15    22.365   154.80  0.018062    75.62   0.91046   -17.18
        100   0.67027   -31.02    22.021   152.51  0.019809    74.64   0.89646   -18.77
        120   0.64346   -36.70    21.289   147.86  0.023087    72.72   0.86701   -21.78
        140   0.61828   -41.75    20.397   143.76  0.026051    71.12   0.83483   -24.38
        160    0.5917   -46.68    19.489   139.91  0.028903    69.54   0.80472   -26.68
        180   0.56543   -51.30    18.635   136.31  0.031504    68.33   0.77317   -28.77
        200   0.53973   -55.51    17.784   133.01  0.033891    67.33   0.74358   -30.52
        220   0.51607   -59.60    17.055   129.92  0.036147    66.70   0.71693   -32.03
        240   0.49175   -63.44    16.282   127.06   0.03827    66.00   0.69098   -33.38
        260    0.4704   -66.97    15.561   124.44  0.040295    65.51   0.66668   -34.54
        280   0.45075   -70.37    14.879   122.11  0.042247    65.15   0.64426   -35.52
        300   0.43142   -73.64    14.242   119.84  0.044131    64.87   0.62381   -36.33
        320   0.41371   -76.64    13.643   117.82  0.045935    64.67   0.60438   -37.11
        340   0.39655   -79.49    13.079   115.88  0.047745    64.56   0.58637   -37.68
        360   0.38258   -82.30    12.565   114.13  0.049531    64.47   0.57056   -38.25
        380   0.36735   -84.99    12.064   112.43  0.051235    64.44   0.55465   -38.72
        400   0.35483   -87.48    11.612   110.88  0.052948    64.48   0.54106   -39.01
        420   0.34255   -90.00    11.184   109.37  0.054725    64.53   0.52815   -39.38
        433   0.33489   -91.64    10.924   108.45  0.055801    64.55   0.52044   -39.54
        440   0.33089   -92.49    10.785   107.95  0.056407    64.55   0.51632   -39.65
        460    0.3207   -94.64    10.402   106.67  0.058082    64.66   0.50542   -39.95
        480   0.31128   -97.06    10.051   105.39   0.05976    64.74   0.49472   -40.16
        500   0.30165   -99.19     9.718   104.21  0.061439    64.83   0.48545   -40.35
        550   0.28005  -104.78    8.9913   101.31  0.065485    65.16   0.46252   -40.71
        600   0.26311  -109.47     8.347    98.85  0.069812    65.48   0.44592   -41.03
        650   0.24822  -114.41    7.7836    96.58  0.074036    65.74   0.43151   -41.34
        700   0.23537  -118.90    7.2911    94.45  0.078274    66.03   0.41896   -41.57
        750   0.22465  -123.34    6.8543    92.52  0.082545    66.31     0.408   -41.72
        800   0.21536  -127.62    6.4711    90.71  0.086861    66.54   0.39917   -42.04
        850   0.20732  -132.02    6.1255    88.94  0.091157    66.70   0.39007   -42.32
        900   0.19985  -136.20    5.8153    87.30  0.095511    66.87   0.38309   -42.60
        950   0.19408  -140.00    5.5378    85.72  0.099883    67.00   0.37718   -43.01
       1000   0.18851  -143.71    5.2839    84.19   0.10432    67.11   0.37178   -43.27
       1050   0.18435  -147.65    5.0493    82.75   0.10875    67.17   0.36692   -43.62
       1100   0.18066  -151.45    4.8391    81.35    0.1132    67.19   0.36269   -44.06
       1150   0.17802  -155.03    4.6451    80.00   0.11767    67.18   0.35839   -44.45
       1200   0.17503  -158.61    4.4676    78.68   0.12217    67.17   0.35527   -45.01
       1250   0.17312  -162.02    4.3026    77.39   0.12667    67.11   0.35213   -45.52
       1300   0.17049  -165.16    4.1514    76.16   0.13122    67.04   0.34993   -46.01
       1350   0.16952  -168.33    4.0112    74.93   0.13574    66.92   0.34732   -46.63
       1400   0.16913  -171.69    3.8811    73.73   0.14029    66.83   0.34445   -47.15
       1450   0.16821  -174.71    3.7596    72.55   0.14486    66.69   0.34243   -47.73
       1500   0.16852  -177.81    3.6436    71.38   0.14942    66.52   0.34009   -48.49
       1550   0.16746   179.46    3.5371    70.24   0.15405    66.35   0.33855   -49.13
       1600   0.16746   176.75    3.4367    69.17   0.15865    66.18   0.33742   -49.82
       1650   0.16777   174.03    3.3425    68.08   0.16331    65.98   0.33602   -50.50
       1700   0.16857   171.49    3.2542    67.00   0.16796    65.78   0.33487   -51.17
       1750   0.16958   168.87    3.1713    65.93   0.17248    65.53     0.333   -51.93
       1800   0.17184   166.35     3.094    64.87   0.17714    65.31     0.331   -52.72
       1850   0.17181   164.14    3.0196    63.80   0.18186    65.07   0.33085   -53.50
       1900   0.17253   161.68    2.9468    62.75   0.18651    64.76   0.33012   -54.50
       1950   0.17346   159.29    2.8792    61.77   0.19113    64.50   0.32897   -55.24
       2000   0.17577   157.68    2.8148    60.77    0.1957    64.23    0.3284   -56.06
       2050   0.17781   155.45    2.7532    59.83   0.20021    63.98   0.32659   -56.84
       2100   0.18103   153.71    2.6965    58.90   0.20492    63.76   0.32528   -57.67
       2150   0.18343   151.28    2.6441    57.96   0.20989    63.49   0.32494   -58.66
       2200   0.18464   149.36    2.5965    57.00    0.2148    63.13   0.32355   -59.57
       2250   0.18466   147.38    2.5473    55.99   0.21949    62.77   0.32467   -60.47
       2300   0.18723   145.52    2.4976    55.04   0.22415    62.41   0.32381   -61.42
       2350   0.19092   144.04    2.4513    54.13   0.22872    62.11   0.32234   -62.28
       2400   0.19307   142.55     2.408    53.24   0.23337    61.79   0.32221   -63.24
       2450   0.19586   140.76    2.3667    52.32     0.238    61.45    0.3205   -64.26
       2500   0.19763   138.98    2.3274    51.42   0.24284    61.15   0.32088   -65.22
       2600   0.20254   136.19    2.2531    49.68   0.25224    60.43   0.32015   -67.43
       2700   0.21048   133.64    2.1854    47.99   0.26186    59.81   0.31815   -69.28
       2800   0.21518   130.25    2.1224    46.24   0.27171    59.07   0.31818   -71.33
       2900   0.22143   127.36    2.0661    44.55   0.28141    58.33   0.31706   -73.40
       3000   0.22914   124.72    2.0136    42.87   0.29139    57.57   0.31544   -75.25
       3100   0.23211   122.09    1.9628    41.16   0.30124    56.72   0.31626   -77.43
       3200    0.2371   119.74    1.9139    39.53   0.31106    55.87   0.31709   -79.60
       3300   0.24473   117.75    1.8699    37.93   0.32088    55.06   0.31611   -81.57
       3400    0.2504   115.52    1.8276    36.36   0.33041    54.16   0.31655   -84.06
       3500   0.25478   113.26    1.7881    34.78   0.34001    53.26   0.31756   -86.59
       3600    0.2637   111.46     1.753    33.27   0.34982    52.47   0.31663   -88.47
       3700   0.26939   109.40    1.7181    31.72   0.35975    51.58   0.31597   -90.89
       3800   0.27485   107.16    1.6848    30.19    0.3695    50.60   0.31693   -93.70
       3900   0.28349   105.34    1.6541    28.71    0.3794    49.71   0.31698   -95.73
       4000   0.28853   103.68    1.6248    27.26   0.38915    48.79   0.31692   -97.91
       4100   0.29416   101.68    1.5963    25.73   0.39867    47.79   0.31759  -100.72
       4200   0.30308   100.00    1.5699    24.27    0.4085    46.81   0.31804  -103.13
       4300   0.30993    98.39     1.545    22.86   0.41835    45.83   0.31804  -105.34
       4400   0.31384    96.47    1.5181    21.44   0.42752    44.81   0.31875  -108.05
       4500    0.3236    94.91    1.4967    20.03   0.43745    43.81   0.32017  -110.50
       4600   0.33027    93.45    1.4741    18.67   0.44693    42.80   0.32095  -112.83
       4700   0.33261    91.83    1.4513    17.31   0.45587    41.76   0.32131  -115.48
       4800   0.34253    90.32    1.4314    16.01   0.46568    40.73   0.32215  -117.98
       4900   0.35043    88.83    1.4109    14.66   0.47498    39.67    0.3234  -120.52
       5000   0.35307    87.38    1.3912    13.35   0.48367    38.61   0.32454  -123.31
       5200   0.36953    84.75    1.3561    10.86    0.5026    36.47   0.32642  -127.81
       5400   0.38028    81.92    1.3205     8.31   0.51937    34.26   0.32979  -133.48
       5600   0.39164    79.13    1.2882     5.93   0.53628    32.06   0.33264  -138.62
       5800   0.40956    76.81    1.2594     3.49    0.5528    29.77   0.33778  -143.55
       6000    0.4186    74.26    1.2286     1.27   0.56697    27.59   0.33961  -149.27

