! Filename:  P:\Prog\Test\Noise\ATS_data\Testdata_Net\03 Spar\BFU550A_APG2013_35_C05_08p0V_015mA_SP_CM01_D.s2p
! Date/Time: Tue 16/Apr/2013 15:10:19
! BFU550A_APG2013_35_C05_08p0V_1to35mA_SP_CM01_Bias6_R.s2p
! MDIF S-parameter v. bias file
! BFU550A_APG2013_35_C05_08p0V_1to35mA_SP_CM01
! Date/time Mon Apr 15 16:50:27 2013
! VAR V_out= 8.0000
! VAR I_out= 14.9950
! VAR V_in= 0.8145
! VAR I_in= 0.1538
! Device data file deembeded for feedlines and parallel
! Original file: \03 Spar\BFU550A_APG2013_35_C05_08p0V_015mA_SP_CM01_R.s2p
! Feed-files: PR017V01_150413_Feed1.s2p, PR017V01_150413_Feed2.s2p
! Parallel-file: PR017V01_150413_Par.s2p
# MHz S MA R 50
!  Freq-MHz   S11-mag  S11-arg   S21-mag  S21-arg   S12-mag  S12-arg   S22-mag  S22-arg
         40   0.62172   -17.26     31.63   164.87 0.0080892    82.62   0.96133   -10.27
         50   0.60931   -21.61    30.968   161.49 0.0099633    80.92   0.94651   -12.85
         60   0.59716   -25.49    30.325   157.91  0.011815    79.32   0.93017   -15.21
         70    0.5859   -29.52    29.722   154.93  0.013545    77.84   0.91185   -17.38
         80   0.57218   -33.45    29.045   151.74  0.015213    76.55   0.89264   -19.46
         90   0.55702   -37.04    28.227   148.78  0.016766    75.19   0.87179   -21.33
        100    0.5435   -40.52    27.507   146.08  0.018313    74.21   0.85123   -23.08
        120   0.51303   -47.37    26.052   140.86  0.021102    72.34   0.81002   -26.23
        140   0.48521   -53.39    24.517   136.34  0.023674    70.95   0.76909   -28.81
        160    0.4569   -59.08    23.011   132.24  0.026105    69.78   0.73118   -30.95
        180   0.43131   -64.34    21.649   128.58  0.028353    68.96   0.69477   -32.74
        200    0.4072   -69.09    20.359   125.30  0.030423    68.41   0.66239   -34.15
        220   0.38645   -73.55    19.253   122.30  0.032417    68.17   0.63366   -35.33
        240   0.36578   -77.70    18.163   119.62  0.034377    67.95   0.60673   -36.24
        260   0.34805   -81.68    17.191   117.16  0.036226    67.82   0.58296   -37.01
        280   0.33248   -85.27    16.291   115.02  0.038114    67.80    0.5615   -37.59
        300   0.31726   -88.83    15.461   112.98  0.039951    67.88   0.54239   -38.02
        320   0.30469   -92.10    14.709   111.19  0.041752    67.92   0.52466   -38.43
        340   0.29177   -95.23    14.016   109.45  0.043554    68.09   0.50872   -38.65
        360   0.28185   -98.23     13.39   107.91  0.045398    68.25   0.49477   -38.90
        380   0.27146  -101.08    12.796   106.43  0.047178    68.38   0.48124   -39.06
        400   0.26236  -103.90    12.263   105.07  0.048977    68.56   0.46997   -39.09
        420    0.2544  -106.60    11.766   103.74    0.0508    68.76   0.45913   -39.22
        433   0.24938  -108.38    11.468   102.96  0.051975    68.87   0.45285   -39.20
        440   0.24707  -109.34    11.308   102.52  0.052607    68.90   0.44949   -39.23
        460   0.24036  -111.63    10.875   101.41   0.05442    69.08   0.44076   -39.33
        480   0.23463  -114.17    10.478   100.30  0.056246    69.23    0.4321   -39.34
        500   0.22834  -116.56    10.107    99.28  0.058048    69.36   0.42488   -39.35
        550   0.21519  -122.55    9.2992    96.75  0.062504    69.74    0.4067   -39.29
        600   0.20513  -127.64    8.5987    94.61  0.067193    70.05    0.3943   -39.35
        650   0.19712  -132.72    7.9931    92.62  0.071818    70.28   0.38362   -39.46
        700   0.19003  -137.44    7.4668    90.75  0.076439    70.46   0.37437   -39.53
        750   0.18458  -141.97    7.0039    89.04  0.081096    70.62   0.36638   -39.58
        800   0.18026  -146.25    6.6002    87.42  0.085785    70.72   0.36013   -39.86
        850   0.17688  -150.70    6.2379    85.85  0.090492    70.76   0.35331   -40.09
        900   0.17367  -154.63    5.9141    84.38  0.095207    70.78   0.34841   -40.37
        950   0.17119  -158.36    5.6248    82.95  0.099932    70.76   0.34433   -40.79
       1000   0.16867  -161.84     5.362    81.55   0.10469    70.73   0.34058   -41.07
       1050   0.16769  -165.48    5.1201    80.24   0.10946    70.65   0.33724   -41.46
       1100   0.16705  -168.96    4.9027    78.96   0.11427    70.52   0.33433   -41.96
       1150   0.16683  -172.14    4.7032    77.72   0.11904    70.38   0.33111   -42.39
       1200    0.1662  -175.30    4.5201    76.50   0.12385    70.22   0.32909   -43.02
       1250   0.16602  -178.33    4.3513    75.30   0.12866    70.02    0.3269   -43.60
       1300   0.16542   178.96    4.1963    74.15   0.13348    69.83   0.32556   -44.16
       1350   0.16594   176.27    4.0525    73.01   0.13827    69.59   0.32375   -44.85
       1400   0.16741   173.44    3.9199    71.88    0.1431    69.38   0.32155   -45.43
       1450   0.16776   170.99    3.7957    70.77   0.14794    69.13   0.32016   -46.09
       1500   0.16934   168.18    3.6772    69.67   0.15277    68.85   0.31839   -46.92
       1550   0.16943   165.93    3.5687    68.60   0.15764    68.56   0.31738   -47.64
       1600   0.17031   163.63     3.466    67.58   0.16248    68.29   0.31677   -48.41
       1650   0.17176   161.45    3.3706    66.55   0.16737    67.98   0.31581   -49.16
       1700    0.1735   159.41    3.2807    65.52   0.17224    67.68   0.31507   -49.91
       1750   0.17507   157.20    3.1964    64.50     0.177    67.35   0.31359   -50.74
       1800   0.17792   155.25    3.1176    63.49   0.18187    67.04   0.31193   -51.59
       1850    0.1786   153.34    3.0421    62.46   0.18678    66.71    0.3121   -52.46
       1900   0.17984   151.35    2.9682    61.47   0.19166    66.31   0.31165   -53.54
       1950   0.18125   149.39       2.9    60.52   0.19643    65.97   0.31077   -54.34
       2000   0.18404   147.98    2.8343    59.57   0.20118    65.62   0.31048   -55.23
       2050   0.18613   146.26    2.7716    58.66   0.20587    65.30   0.30891   -56.08
       2100   0.18931   144.97    2.7143    57.76   0.21075    64.99   0.30776   -56.99
       2150   0.19231   142.90    2.6611    56.88   0.21588    64.64   0.30757   -58.04
       2200   0.19418   141.20    2.6127    55.93   0.22096    64.23   0.30638   -59.01
       2250   0.19458   139.52     2.563    54.96   0.22586    63.81   0.30773   -59.97
       2300    0.1972   138.01    2.5131    54.04   0.23064    63.38   0.30694   -61.00
       2350   0.20078   136.80    2.4656    53.16    0.2353    63.01   0.30559   -61.91
       2400   0.20286   135.62    2.4222    52.30   0.24013    62.62   0.30559   -62.93
       2450   0.20601   133.98    2.3804    51.40   0.24489    62.23   0.30405   -64.00
       2500   0.20768   132.52      2.34    50.54   0.24985    61.86   0.30453   -65.03
       2600   0.21287   130.08    2.2652    48.84   0.25945    61.04   0.30401   -67.36
       2700   0.22104   128.03     2.197    47.20   0.26931    60.31   0.30207   -69.30
       2800   0.22588   124.94    2.1332    45.50   0.27935    59.47   0.30233   -71.49
       2900   0.23175   122.43    2.0763    43.85   0.28918    58.64   0.30127   -73.64
       3000   0.23936   120.18    2.0233    42.22   0.29936    57.79   0.29978   -75.56
       3100   0.24258   117.84    1.9718    40.54    0.3093    56.84   0.30065   -77.85
       3200   0.24728   115.71    1.9223    38.95   0.31922    55.92   0.30165   -80.13
       3300   0.25509   113.96    1.8782    37.36    0.3291    55.03   0.30065   -82.15
       3400   0.26022   112.00    1.8354    35.83   0.33868    54.06   0.30114   -84.74
       3500    0.2648   109.86    1.7955    34.30   0.34821    53.09   0.30227   -87.38
       3600   0.27328   108.26    1.7598    32.82   0.35809    52.25   0.30134   -89.33
       3700   0.27897   106.38    1.7249    31.29   0.36795    51.29   0.30082   -91.83
       3800   0.28415   104.32    1.6915    29.79   0.37764    50.26   0.30182   -94.74
       3900    0.2926   102.67    1.6604    28.33   0.38753    49.31   0.30179   -96.82
       4000   0.29767   101.08    1.6309    26.89   0.39717    48.36   0.30176   -99.08
       4100    0.3027    99.27    1.6022    25.39   0.40658    47.31   0.30258  -101.97
       4200   0.31123    97.69     1.576    23.96   0.41629    46.29   0.30304  -104.44
       4300   0.31812    96.20    1.5504    22.56   0.42599    45.28   0.30296  -106.71
       4400   0.32144    94.37    1.5236    21.17   0.43499    44.22    0.3039  -109.49
       4500   0.33139    92.91    1.5021    19.77   0.44479    43.19   0.30531  -111.98
       4600   0.33749    91.55    1.4794    18.43   0.45409    42.15   0.30613  -114.35
       4700   0.34014    90.03    1.4561    17.10   0.46279    41.09    0.3066  -117.09
       4800   0.34966    88.59    1.4366    15.81   0.47238    40.04   0.30745  -119.62
       4900   0.35694    87.20    1.4156    14.46    0.4815    38.96   0.30876  -122.19
       5000   0.35946    85.83    1.3963    13.18   0.48992    37.88   0.30997  -125.06
       5200   0.37547    83.27     1.361    10.71   0.50831    35.71   0.31207  -129.60
       5400   0.38605    80.61    1.3252     8.19    0.5245    33.48   0.31563  -135.35
       5600   0.39732    77.94    1.2932     5.84   0.54083    31.27    0.3187  -140.55
       5800   0.41451    75.69    1.2644     3.40   0.55684    28.97   0.32409  -145.49
       6000   0.42323    73.21    1.2336     1.21   0.57043    26.80    0.3263  -151.27

