! Filename:  P:\Prog\Test\Noise\ATS_data\Testdata_Net\03 Spar\BFU550A_APG2013_35_C05_08p0V_002mA_SP_CM01_D.s2p
! Date/Time: Tue 16/Apr/2013 15:10:17
! BFU550A_APG2013_35_C05_08p0V_1to35mA_SP_CM01_Bias2_R.s2p
! MDIF S-parameter v. bias file
! BFU550A_APG2013_35_C05_08p0V_1to35mA_SP_CM01
! Date/time Mon Apr 15 16:50:27 2013
! VAR V_out= 8.0000
! VAR I_out= 1.9900
! VAR V_in= 0.7955
! VAR I_in= 0.0200
! Device data file deembeded for feedlines and parallel
! Original file: \03 Spar\BFU550A_APG2013_35_C05_08p0V_002mA_SP_CM01_R.s2p
! Feed-files: PR017V01_150413_Feed1.s2p, PR017V01_150413_Feed2.s2p
! Parallel-file: PR017V01_150413_Par.s2p
# MHz S MA R 50
!  Freq-MHz   S11-mag  S11-arg   S21-mag  S21-arg   S12-mag  S12-arg   S22-mag  S22-arg
         40   0.92931    -5.45    6.6585   175.31 0.0096374    86.88   0.99607    -3.08
         50   0.92752    -6.84    6.6151   174.12  0.012117    85.82   0.99469    -3.93
         60    0.9258    -8.09    6.5984   172.35  0.014489    84.80    0.9937    -4.75
         70   0.92451    -9.48    6.6066   171.47  0.016884    84.01   0.99162    -5.53
         80   0.92245   -10.83     6.595   170.13  0.019244    83.31   0.98985    -6.31
         90   0.91986   -12.11    6.5248   168.81  0.021559    82.32   0.98755    -7.09
        100   0.91779   -13.46    6.5207   167.77  0.023886    81.59   0.98494    -7.85
        120   0.91136   -16.19    6.5427   165.39  0.028477    80.06   0.98029    -9.36
        140   0.90524   -18.77    6.4788   163.19  0.032926    78.55   0.97367   -10.84
        160   0.89811   -21.37     6.406   161.00  0.037436    76.92   0.96781   -12.28
        180   0.89009   -23.90    6.3249   158.77  0.041722    75.40   0.95935   -13.76
        200   0.88179   -26.44     6.254   156.65  0.045855    73.99   0.95128   -15.15
        220   0.87256   -29.01    6.2463   154.51  0.049819    72.77   0.94217   -16.47
        240   0.86233   -31.52    6.1874   152.36  0.053757    71.36   0.93394   -17.78
        260   0.85302   -33.91    6.0987   150.26   0.05753    70.02   0.92487   -19.07
        280   0.84353   -36.23    5.9982   148.39  0.061203    68.74   0.91563   -20.33
        300   0.83222   -38.65    5.9368   146.37  0.064596    67.53   0.90457   -21.51
        320   0.82084   -41.13    5.8969   144.50  0.068013    66.36   0.89462   -22.70
        340   0.80953   -43.40    5.8167   142.60  0.071216    65.18   0.88416   -23.80
        360   0.79883   -45.65    5.7348   140.82  0.074399    64.12    0.8749   -24.85
        380   0.78734   -47.77    5.6318   138.99  0.077292    63.02   0.86355   -25.94
        400   0.77556   -50.00     5.569   137.28  0.080137    62.12   0.85339   -26.83
        420   0.76392   -52.26    5.5034   135.48  0.082927    61.10   0.84354   -27.84
        433   0.75611   -53.63    5.4482   134.43  0.084688    60.49   0.83746   -28.40
        440   0.75228   -54.41    5.4261   133.83  0.085615    60.15   0.83382   -28.76
        460   0.74108   -56.48    5.3451   132.23  0.088131    59.23   0.82423   -29.70
        480   0.73019   -58.49    5.2553   130.63  0.090474    58.36   0.81349   -30.58
        500   0.71788   -60.58     5.191   129.05  0.092784    57.53   0.80378   -31.40
        550    0.6887   -65.64    5.0102   125.18  0.097858    55.57   0.77809   -33.42
        600   0.66206   -70.36    4.8294   121.65   0.10258    53.93   0.75597   -35.21
        650   0.63752   -74.74    4.6293   118.37   0.10697    52.43   0.73583   -36.82
        700   0.61181   -79.22      4.47   115.11   0.11052    51.12   0.71479   -38.39
        750   0.58982   -83.36    4.2916   112.17   0.11402    50.01   0.69612   -39.67
        800    0.5675   -87.49    4.1447   109.28   0.11706    49.06   0.67847   -40.97
        850   0.54625   -91.54    3.9954   106.49   0.11986    48.17   0.66152   -42.16
        900   0.52676   -95.40     3.856   103.90   0.12263    47.39   0.64794   -43.24
        950   0.50923   -99.17    3.7271   101.39   0.12456    46.86   0.63178   -44.39
       1000   0.49266  -102.73    3.6001    99.01   0.12677    46.38   0.61933   -45.31
       1050   0.47719  -106.35    3.4774    96.72   0.12861    46.08   0.60612   -46.20
       1100   0.46276  -109.88    3.3668    94.53   0.13052    45.79    0.5949   -47.09
       1150   0.44943  -113.39    3.2618    92.41   0.13254    45.46   0.58578   -47.89
       1200   0.43639  -116.72    3.1638    90.35   0.13405    45.42   0.57543   -48.78
       1250   0.42521  -120.00    3.0692    88.37   0.13587    45.34   0.56719   -49.55
       1300   0.41423  -123.18    2.9837    86.48   0.13726    45.39   0.55901   -50.34
       1350   0.40488  -126.40    2.8996    84.62   0.13876    45.55   0.55054   -51.10
       1400   0.39584  -129.70    2.8221    82.81   0.14031    45.66   0.54335   -51.84
       1450    0.3874  -132.77    2.7461    81.06   0.14189    45.89   0.53683   -52.53
       1500   0.37981  -135.97    2.6747    79.32   0.14351    46.09   0.53071   -53.33
       1550   0.37237  -138.87    2.6091    77.64   0.14518    46.36   0.52535   -54.05
       1600   0.36619  -141.83    2.5465    76.08   0.14669    46.76   0.52002   -54.79
       1650   0.36047  -144.78    2.4868    74.50   0.14847    47.16   0.51508   -55.51
       1700   0.35537  -147.70    2.4296    72.94   0.15031    47.73    0.5096   -56.15
       1750    0.3505  -150.66    2.3749    71.42   0.15215    48.04   0.50588   -56.87
       1800   0.34702  -153.63    2.3236    69.90   0.15402    48.50   0.50132   -57.65
       1850   0.34291  -156.28    2.2744    68.44   0.15612    48.92   0.49911   -58.37
       1900   0.33931  -159.10    2.2256    67.01   0.15826    49.38   0.49584   -59.26
       1950   0.33573  -161.79    2.1804    65.64   0.16049    49.87   0.49253   -59.94
       2000   0.33479  -164.47    2.1366    64.27   0.16277    50.39   0.48997   -60.66
       2050   0.33236  -167.15    2.0942    62.97   0.16504    50.92   0.48635   -61.40
       2100   0.33185  -169.74    2.0554    61.66   0.16764    51.47   0.48373   -62.13
       2150   0.32993  -172.49    2.0198    60.40   0.17042    51.97   0.48236   -63.00
       2200   0.32845  -175.00    1.9867    59.11   0.17337    52.44   0.47959   -63.85
       2250   0.32669  -177.37    1.9528    57.80   0.17627    52.82   0.47989   -64.62
       2300   0.32623  -179.93    1.9176    56.57    0.1794    53.33   0.47735   -65.48
       2350   0.32756   177.60    1.8843    55.38   0.18199    53.71   0.47608   -66.30
       2400   0.32769   175.36    1.8538    54.21   0.18532    54.21   0.47483   -67.17
       2450   0.32787   172.95    1.8248    53.02    0.1886    54.59    0.4727   -68.06
       2500   0.32743   170.72    1.7962    51.84   0.19196    55.04   0.47287   -68.94
       2600   0.32956   166.32    1.7427    49.61   0.19959    55.83   0.47043   -70.90
       2700   0.33499   162.00    1.6935    47.47   0.20772    56.57   0.46814   -72.60
       2800   0.33632   157.66    1.6477    45.29   0.21632    57.11   0.46804   -74.51
       2900   0.34011   153.46    1.6055    43.20   0.22531    57.57   0.46684   -76.47
       3000   0.34598   149.51    1.5658    41.17   0.23505    57.94   0.46547   -78.34
       3100   0.34833   145.79    1.5282    39.14   0.24527    58.11    0.4658   -80.41
       3200   0.35256   142.20     1.491    37.23   0.25593    58.16   0.46651   -82.44
       3300   0.36018   138.82     1.457    35.32   0.26662    58.27   0.46661   -84.58
       3400    0.3648   135.53    1.4249    33.48   0.27778    58.07   0.46723   -86.87
       3500    0.3687   132.14    1.3946    31.69   0.28951    57.72   0.46775   -89.17
       3600   0.37783   129.08    1.3661    29.97    0.3013    57.51   0.46785   -91.18
       3700    0.3836   126.02    1.3384    28.26   0.31359    57.06   0.46785   -93.51
       3800   0.38843   122.90    1.3122    26.54   0.32602    56.45     0.469   -96.11
       3900   0.39744   120.01    1.2873    24.95   0.33875    55.88   0.46955   -98.29
       4000   0.40334   117.32    1.2634    23.40   0.35162    55.22   0.47002  -100.50
       4100   0.40859   114.47    1.2403    21.75   0.36457    54.36   0.47062  -103.17
       4200   0.41754   111.85    1.2184    20.23   0.37771    53.54   0.47168  -105.68
       4300   0.42505   109.36    1.1977    18.77   0.39106    52.70   0.47256  -108.06
       4400   0.42815   106.66    1.1757    17.35   0.40385    51.63    0.4725  -110.59
       4500   0.43824   104.20    1.1578    15.93   0.41738    50.66   0.47441  -113.17
       4600   0.44504   102.00     1.139    14.59   0.43049    49.60   0.47501  -115.62
       4700   0.44725    99.63    1.1196    13.25   0.44306    48.46     0.475  -118.22
       4800   0.45701    97.36    1.1037    12.04   0.45655    47.33   0.47581  -120.82
       4900   0.46442    95.18    1.0862    10.76   0.46959    46.18   0.47761  -123.49
       5000   0.46641    93.09    1.0699     9.53   0.48171    44.96   0.47853  -126.22
       5200   0.48226    89.02    1.0416     7.29    0.5077    42.41   0.47829  -131.11
       5400    0.4911    85.05    1.0121     5.06   0.53112    39.78   0.48125  -136.83
       5600   0.50045    81.22   0.98665     3.03   0.55364    37.08   0.48187  -142.03
       5800   0.51563    77.82   0.96451     0.97   0.57554    34.26     0.484  -147.25
       6000   0.52094    74.42   0.94072    -0.79   0.59414    31.58   0.48386  -152.88

