! Filename:  P:\Prog\Test\Noise\ATS_data\Testdata_Net\03 Spar\BFU550A_APG2013_35_C05_12p0V_035mA_SP_CM01_D.s2p
! Date/Time: Tue 16/Apr/2013 15:10:21
! BFU550A_APG2013_35_C05_12p0V_1to35mA_SP_CM01_Bias8_R.s2p
! MDIF S-parameter v. bias file
! BFU550A_APG2013_35_C05_12p0V_1to35mA_SP_CM01
! Date/time Mon Apr 15 17:55:46 2013
! VAR V_out= 12.0010
! VAR I_out= 34.9950
! VAR V_in= 0.7299
! VAR I_in= 0.3334
! Device data file deembeded for feedlines and parallel
! Original file: \03 Spar\BFU550A_APG2013_35_C05_12p0V_035mA_SP_CM01_R.s2p
! Feed-files: PR017V01_150413_Feed1.s2p, PR017V01_150413_Feed2.s2p
! Parallel-file: PR017V01_150413_Par.s2p
# MHz S MA R 50
!  Freq-MHz   S11-mag  S11-arg   S21-mag  S21-arg   S12-mag  S12-arg   S22-mag  S22-arg
         40   0.47376   -25.75    41.907   160.14 0.0072747    80.67   0.92494   -12.63
         50   0.45772   -32.07    40.609   155.62 0.0089663    78.21   0.90312   -15.97
         60   0.44274   -37.56    39.185   151.19  0.010506    76.88   0.87511   -18.73
         70    0.4296   -43.06    37.797   147.48  0.011958    75.66   0.84681   -21.12
         80   0.41482   -48.39    36.382   143.76  0.013313    74.56   0.81884   -23.24
         90   0.39917   -53.15    34.852   140.37  0.014619    73.52    0.7912   -25.05
        100   0.38615   -57.67    33.442   137.32  0.015845    72.87   0.76468   -26.71
        120   0.35804   -66.43    30.758   131.70  0.018114    71.73   0.71343   -29.42
        140   0.33478   -73.63    28.206   127.09  0.020202    71.18   0.66724   -31.29
        160   0.31335   -80.53     25.91   123.10  0.022273    70.79   0.62796   -32.60
        180   0.29519   -86.87    23.924   119.64  0.024244    70.72   0.59278   -33.59
        200    0.2791   -92.22    22.139   116.66  0.026137    70.80   0.56286   -34.16
        220   0.26683   -97.27    20.656   113.99  0.027989    71.13   0.53803   -34.58
        240   0.25434  -102.10    19.273   111.64  0.029844    71.35   0.51562   -34.76
        260   0.24425  -106.59    18.068   109.50   0.03169    71.69   0.49655   -34.89
        280   0.23611  -110.54    16.987   107.68  0.033532    71.95   0.47999   -34.87
        300   0.22867  -114.48    16.012   105.97  0.035375    72.22   0.46574   -34.75
        320   0.22242  -117.87    15.142   104.46  0.037232    72.51   0.45287   -34.70
        340   0.21603  -121.19    14.356   103.00  0.039128    72.74   0.44158   -34.48
        360   0.21201  -124.44    13.656   101.71   0.04098    72.98     0.432   -34.37
        380   0.20716  -127.54    13.001   100.46  0.042835    73.17    0.4227   -34.23
        400   0.20294  -130.27    12.418    99.32  0.044732    73.47   0.41526   -33.97
        420   0.20021  -133.01     11.88    98.21  0.046642    73.64   0.40806   -33.87
        433   0.19842  -134.91    11.558    97.55  0.047865    73.76   0.40408   -33.72
        440   0.19749  -135.75    11.386    97.19  0.048523    73.79   0.40184   -33.68
        460   0.19484  -137.96    10.925    96.24  0.050435    73.97   0.39633   -33.63
        480   0.19334  -140.30    10.506    95.32  0.052329    74.09   0.39073   -33.48
        500   0.19074  -142.71    10.115    94.45  0.054215    74.19   0.38642   -33.39
        550   0.18688  -148.18    9.2704    92.29  0.058911    74.50   0.37465   -33.09
        600    0.1836  -152.71    8.5472    90.46  0.063773    74.61   0.36748   -33.09
        650   0.18191  -157.24    7.9271    88.73  0.068577    74.71   0.36119   -33.19
        700   0.18013  -161.31    7.3909    87.09  0.073382    74.76   0.35589   -33.29
        750   0.17959  -164.91    6.9226    85.58  0.078214    74.77   0.35127   -33.39
        800   0.17904  -168.39    6.5147    84.13  0.083034    74.72   0.34774   -33.78
        850   0.17938  -171.93     6.151    82.72  0.087862    74.63    0.3434   -34.10
        900   0.17907  -175.09    5.8264    81.38  0.092727    74.53   0.34066   -34.48
        950   0.17927  -177.95    5.5373    80.07  0.097574    74.38    0.3385   -35.04
       1000   0.17899   179.24    5.2745    78.79   0.10248    74.22   0.33648   -35.45
       1050   0.18033   176.58    5.0341    77.59   0.10737    74.03   0.33468   -35.98
       1100   0.18136   173.98    4.8178    76.39   0.11225    73.79   0.33302   -36.59
       1150   0.18268   171.56    4.6197    75.23   0.11714    73.56   0.33102   -37.15
       1200   0.18361   169.15    4.4386    74.09   0.12205    73.31   0.33001   -37.92
       1250   0.18469   166.91    4.2711    72.96   0.12696    73.04   0.32875   -38.61
       1300   0.18522   164.76    4.1176    71.86   0.13189    72.75   0.32829   -39.29
       1350   0.18654   162.76    3.9756    70.77   0.13678    72.45   0.32722   -40.10
       1400   0.18888   160.63    3.8445    69.70    0.1417    72.16   0.32574   -40.79
       1450   0.18995   158.64    3.7221    68.64   0.14664    71.83   0.32504   -41.55
       1500   0.19238   156.63     3.605    67.59   0.15155    71.49   0.32379   -42.48
       1550   0.19294   154.84    3.4977    66.55   0.15651    71.14   0.32328   -43.30
       1600   0.19444   153.08    3.3967    65.58   0.16143    70.81   0.32317   -44.17
       1650    0.1963   151.38    3.3026    64.58   0.16643    70.46   0.32266   -45.02
       1700   0.19794   149.76    3.2141    63.58   0.17135    70.10   0.32236   -45.86
       1750   0.20031   148.04    3.1311    62.60   0.17622    69.73   0.32123   -46.77
       1800   0.20342   146.55     3.054    61.61    0.1812    69.37   0.31991   -47.70
       1850    0.2041   144.93    2.9795    60.61   0.18621    68.99    0.3204   -48.65
       1900   0.20563   143.33    2.9068    59.63   0.19114    68.56   0.32017   -49.80
       1950   0.20761   141.69    2.8396    58.71   0.19599    68.17   0.31959   -50.68
       2000   0.21005   140.65    2.7749    57.79   0.20083    67.78   0.31953   -51.65
       2050   0.21247   139.31    2.7135    56.90   0.20562    67.42   0.31819   -52.55
       2100   0.21551   138.26     2.657    56.03   0.21064    67.10   0.31726   -53.51
       2150   0.21889   136.56    2.6049    55.14   0.21585    66.71   0.31725   -54.62
       2200   0.22095   135.14    2.5574    54.23     0.221    66.24   0.31626   -55.66
       2250   0.22125   133.60    2.5086    53.26   0.22598    65.79   0.31775   -56.70
       2300   0.22362   132.33    2.4593    52.35   0.23088    65.34   0.31712   -57.78
       2350    0.2276   131.48    2.4128    51.50   0.23568    64.94   0.31595   -58.73
       2400   0.22972   130.34      2.37    50.65   0.24055    64.53   0.31609   -59.81
       2450   0.23277   129.03     2.329    49.77   0.24545    64.10   0.31462   -60.94
       2500   0.23453   127.73    2.2897    48.90   0.25051    63.71   0.31519   -62.02
       2600   0.23951   125.66    2.2158    47.23   0.26029    62.82   0.31482   -64.43
       2700   0.24779   123.90    2.1489    45.62   0.27037    62.05   0.31319   -66.48
       2800   0.25229   121.17    2.0864    43.93   0.28064    61.16   0.31359   -68.74
       2900   0.25867   118.89    2.0301    42.30   0.29073    60.27   0.31274   -70.98
       3000   0.26608   116.88    1.9783    40.68   0.30112    59.38   0.31142   -72.98
       3100   0.26929   114.67    1.9273    39.03   0.31133    58.38   0.31249   -75.36
       3200   0.27383   112.70     1.879    37.44   0.32146    57.41   0.31352   -77.72
       3300   0.28119   111.10    1.8353    35.90    0.3316    56.48   0.31266   -79.82
       3400   0.28632   109.32    1.7934    34.37   0.34141    55.46   0.31312   -82.48
       3500    0.2908   107.29    1.7542    32.84   0.35114    54.45   0.31427   -85.18
       3600   0.29929   105.86    1.7192    31.38    0.3613    53.56   0.31349   -87.19
       3700   0.30477   104.03    1.6847    29.86   0.37138    52.57   0.31289   -89.76
       3800   0.31017   102.08    1.6513    28.36   0.38129    51.50   0.31389   -92.72
       3900   0.31825   100.56    1.6209    26.92   0.39146    50.50   0.31407   -94.87
       4000   0.32274    99.01    1.5916    25.51   0.40132    49.51    0.3141   -97.18
       4100   0.32822    97.14    1.5632    24.02   0.41094    48.42   0.31476  -100.13
       4200   0.33641    95.73    1.5375    22.60   0.42093    47.37    0.3153  -102.67
       4300   0.34306    94.26    1.5125    21.22   0.43085    46.31    0.3153  -104.99
       4400   0.34635    92.48    1.4856    19.85   0.44006    45.21   0.31608  -107.81
       4500   0.35598    91.05    1.4644    18.46   0.45008    44.14   0.31758  -110.37
       4600   0.36203    89.71    1.4419    17.14   0.45958    43.06    0.3184  -112.81
       4700   0.36389    88.22    1.4193    15.81   0.46844    41.97   0.31876  -115.56
       4800   0.37363    86.79    1.3995    14.56   0.47826    40.87   0.31961  -118.16
       4900   0.38109    85.47    1.3794    13.21   0.48752    39.75   0.32083  -120.80
       5000   0.38295    84.09    1.3597    11.96   0.49612    38.64   0.32203  -123.68
       5200   0.39857    81.56    1.3248     9.52    0.5149    36.40   0.32403  -128.34
       5400   0.40842    78.91    1.2896     7.05   0.53127    34.10   0.32732  -134.16
       5600   0.41936    76.26    1.2575     4.73   0.54783    31.82   0.33019  -139.43
       5800   0.43581    74.01    1.2292     2.37     0.564    29.46   0.33541  -144.47
       6000   0.44411    71.56     1.199     0.21   0.57763    27.22   0.33727  -150.31

