! Filename:  P:\Prog\Test\Noise\ATS_data\Testdata_Net\03 Spar\BFU550A_APG2013_35_C05_05p0V_015mA_SP_CM01_D.s2p
! Date/Time: Tue 16/Apr/2013 15:10:18
! BFU550A_APG2013_35_C05_05p0V_1to35mA_SP_CM01_Bias6_R.s2p
! MDIF S-parameter v. bias file
! BFU550A_APG2013_35_C05_05p0V_1to35mA_SP_CM01
! Date/time Mon Apr 15 15:41:37 2013
! VAR V_out= 5.0000
! VAR I_out= 14.9950
! VAR V_in= 0.8331
! VAR I_in= 0.1613
! Device data file deembeded for feedlines and parallel
! Original file: \03 Spar\BFU550A_APG2013_35_C05_05p0V_015mA_SP_CM01_R.s2p
! Feed-files: PR017V01_150413_Feed1.s2p, PR017V01_150413_Feed2.s2p
! Parallel-file: PR017V01_150413_Par.s2p
# MHz S MA R 50
!  Freq-MHz   S11-mag  S11-arg   S21-mag  S21-arg   S12-mag  S12-arg   S22-mag  S22-arg
         40   0.59809   -18.71    32.136   164.40 0.0081902    82.14   0.95861   -10.88
         50   0.58625   -23.35    31.426   160.90  0.010134    80.46   0.94331   -13.60
         60   0.57364   -27.55    30.743   157.20  0.011965    78.81   0.92491   -15.91
         70   0.56219   -31.87    30.097   154.09  0.013685    77.30   0.90566   -18.15
         80   0.54826   -36.04    29.364   150.79  0.015384    76.02   0.88523   -20.30
         90     0.533   -39.85    28.489   147.74  0.016927    74.70   0.86299   -22.23
        100   0.51927   -43.58    27.714   144.97  0.018434    73.67   0.84117   -24.01
        120   0.48955   -50.87    26.154   139.67  0.021214    71.78   0.79787   -27.17
        140   0.46234   -57.26    24.543   135.08  0.023746    70.44   0.75564   -29.74
        160   0.43467   -63.27    22.964   130.95  0.026157    69.31   0.71662   -31.85
        180   0.41085   -68.87    21.549   127.29  0.028365    68.62   0.67955   -33.58
        200   0.38832   -73.90    20.223   124.02  0.030434    68.11   0.64704   -34.94
        220   0.36908   -78.63    19.085   121.04  0.032428    67.95   0.61816   -36.06
        240   0.35006   -83.02    17.975   118.39  0.034317    67.77    0.5913   -36.90
        260   0.33388   -87.24    16.989   115.97  0.036226    67.74   0.56771   -37.62
        280    0.3196   -91.12     16.08   113.85  0.038084    67.77   0.54651   -38.15
        300   0.30617   -94.82    15.243   111.85   0.03991    67.85   0.52765   -38.52
        320   0.29487   -98.16    14.489   110.10  0.041741    67.98   0.51037   -38.88
        340    0.2838  -101.49    13.795   108.38  0.043592    68.15   0.49481   -39.06
        360   0.27505  -104.66    13.168   106.87  0.045415    68.32    0.4812   -39.27
        380   0.26609  -107.71    12.578   105.42  0.047215    68.49   0.46809   -39.39
        400   0.25835  -110.61    12.049   104.07  0.049025    68.74   0.45721   -39.40
        420    0.2517  -113.35    11.553   102.77  0.050897    68.88   0.44663   -39.50
        433   0.24701  -115.24    11.257   102.00  0.052062    69.02    0.4406   -39.46
        440   0.24508  -116.15    11.098   101.58  0.052723    69.07   0.43739   -39.48
        460   0.23937  -118.56     10.67   100.47  0.054536    69.28   0.42899   -39.56
        480   0.23481  -121.09    10.277    99.38  0.056382    69.41   0.42062   -39.56
        500    0.2297  -123.60    9.9085    98.38  0.058224    69.57   0.41375   -39.55
        550   0.21886  -129.62    9.1114    95.89  0.062708    69.96   0.39618   -39.46
        600   0.21066  -134.74    8.4217    93.78  0.067456    70.27   0.38439   -39.49
        650   0.20462  -139.79    7.8254    91.82   0.07215    70.49   0.37421   -39.60
        700   0.19912  -144.36    7.3076    89.97   0.07682    70.70   0.36545   -39.66
        750   0.19526  -148.74    6.8527    88.28  0.081557    70.85   0.35777   -39.72
        800   0.19201  -152.77    6.4556    86.67  0.086305    70.93   0.35189   -40.01
        850   0.18987  -156.98    6.1006    85.10   0.09105    70.97   0.34543   -40.26
        900   0.18759  -160.76     5.783    83.64  0.095824    70.99   0.34078   -40.55
        950   0.18607  -164.16    5.4989    82.21   0.10061    70.95   0.33697   -40.99
       1000   0.18426  -167.42    5.2413    80.83   0.10542    70.91   0.33337   -41.30
       1050   0.18405  -170.76    5.0046    79.52   0.11026    70.82   0.33031   -41.71
       1100    0.1838  -173.95    4.7922    78.23   0.11511    70.68   0.32751   -42.23
       1150   0.18418  -176.85    4.5965    77.00   0.11995    70.53   0.32449   -42.69
       1200   0.18405  -179.69    4.4178    75.78   0.12479    70.37   0.32259   -43.35
       1250   0.18428   177.58    4.2526    74.57    0.1297    70.18    0.3205   -43.95
       1300   0.18415   175.01    4.1008    73.42   0.13456    69.96   0.31931   -44.54
       1350   0.18506   172.62    3.9603    72.27   0.13941    69.72   0.31763   -45.25
       1400   0.18657   170.08    3.8305    71.15   0.14429    69.50   0.31551   -45.86
       1450   0.18736   167.72    3.7089    70.04   0.14919    69.24   0.31422   -46.56
       1500   0.18902   165.22    3.5934    68.93   0.15408    68.94   0.31256   -47.41
       1550   0.18937   163.19    3.4877    67.85     0.159    68.65   0.31165   -48.15
       1600   0.19034   161.12    3.3876    66.83   0.16389    68.38   0.31111   -48.95
       1650    0.1918   159.11    3.2936    65.79   0.16886    68.07   0.31024   -49.74
       1700   0.19353   157.17    3.2064    64.75   0.17378    67.76   0.30959   -50.51
       1750   0.19552   155.19    3.1237    63.74    0.1786    67.42   0.30817   -51.37
       1800   0.19804   153.35    3.0469    62.71   0.18353    67.09   0.30662   -52.26
       1850   0.19884   151.56    2.9732    61.69    0.1885    66.76   0.30681   -53.15
       1900    0.2004   149.79    2.9013    60.68   0.19339    66.35   0.30641   -54.25
       1950   0.20198   147.91    2.8347    59.73   0.19821    66.01   0.30561   -55.08
       2000   0.20463   146.66    2.7702    58.78   0.20305    65.66    0.3054   -56.00
       2050   0.20654   145.01     2.709    57.85   0.20781    65.32   0.30391   -56.88
       2100   0.20972   143.80    2.6531    56.95   0.21273    65.01   0.30282   -57.82
       2150   0.21278   141.91    2.6009    56.05   0.21793    64.66   0.30267   -58.90
       2200   0.21465   140.22     2.554    55.11   0.22302    64.23   0.30157   -59.90
       2250   0.21483   138.64    2.5052    54.12   0.22801    63.80   0.30292   -60.89
       2300   0.21758   137.18    2.4563    53.20   0.23285    63.37   0.30227   -61.93
       2350   0.22138   136.09    2.4101    52.32   0.23759    63.00   0.30093   -62.87
       2400   0.22359   134.86    2.3676    51.45   0.24245    62.61     0.301   -63.93
       2450   0.22673   133.42     2.327    50.55   0.24724    62.20   0.29948   -65.03
       2500   0.22815   131.98     2.288    49.67    0.2523    61.83   0.30008   -66.09
       2600   0.23325   129.65    2.2145    47.97   0.26199    60.99   0.29964   -68.46
       2700   0.24118   127.62    2.1477    46.32   0.27195    60.25   0.29784   -70.47
       2800   0.24615   124.74    2.0859    44.60   0.28209    59.39   0.29821   -72.71
       2900   0.25201   122.30    2.0298    42.94   0.29205    58.55   0.29733   -74.91
       3000   0.25972   120.05     1.978    41.30   0.30234    57.69   0.29589   -76.88
       3100   0.26284   117.73    1.9278    39.62   0.31243    56.73   0.29686   -79.23
       3200   0.26762   115.60    1.8795    38.01   0.32242    55.79   0.29794   -81.56
       3300   0.27518   113.86    1.8363    36.43   0.33246    54.89   0.29717   -83.64
       3400   0.28021   111.91    1.7944    34.89   0.34207    53.90   0.29772   -86.27
       3500   0.28467   109.83    1.7555    33.34   0.35173    52.92   0.29894   -88.97
       3600   0.29318   108.20    1.7208    31.87   0.36166    52.07   0.29815   -90.96
       3700   0.29889   106.28    1.6866    30.34    0.3716    51.09   0.29777   -93.50
       3800   0.30387   104.26    1.6536    28.82    0.3814    50.05   0.29893   -96.47
       3900   0.31237   102.63    1.6235    27.36   0.39139    49.09   0.29901   -98.59
       4000    0.3171   101.06    1.5945    25.94   0.40108    48.11   0.29919  -100.90
       4100   0.32218    99.12    1.5662    24.43   0.41057    47.05   0.30017  -103.83
       4200   0.33072    97.58    1.5403    23.01   0.42032    46.02   0.30083  -106.34
       4300    0.3375    96.03    1.5155    21.61   0.43011    45.00    0.3008  -108.66
       4400    0.3406    94.25    1.4888    20.22   0.43918    43.92    0.3019  -111.48
       4500   0.35042    92.73    1.4678    18.82   0.44904    42.87   0.30353  -114.00
       4600   0.35654    91.40    1.4457    17.50   0.45838    41.82   0.30439  -116.41
       4700   0.35876    89.80    1.4227    16.16   0.46706    40.74   0.30504  -119.20
       4800   0.36832    88.38    1.4039    14.87   0.47674    39.68   0.30607  -121.76
       4900    0.3757    86.94    1.3835    13.54   0.48589    38.59   0.30757  -124.35
       5000   0.37815    85.55    1.3639    12.26   0.49429    37.49   0.30891  -127.25
       5200    0.3938    82.96    1.3293     9.80   0.51277    35.30   0.31132  -131.86
       5400   0.40368    80.20    1.2944     7.30   0.52887    33.04   0.31524  -137.64
       5600   0.41488    77.55    1.2626     4.96   0.54519    30.81   0.31862  -142.87
       5800   0.43148    75.21    1.2343     2.57   0.56109    28.49   0.32426  -147.83
       6000   0.44017    72.78    1.2042     0.41   0.57453    26.29   0.32692  -153.62

