! Filename:  P:\Prog\Test\Noise\ATS_data\Testdata_Net\03 Spar\BFU550A_APG2013_35_C05_03p3V_002mA_SP_CM01_D.s2p
! Date/Time: Tue 16/Apr/2013 15:10:20
! BFU550A_APG2013_35_C05_03p3V_1to35mA_SP_CM01_Bias2_R.s2p
! MDIF S-parameter v. bias file
! BFU530A_APG2013_33_A09_08p0V_015mA_SP_CM01
! Date/time Mon Apr 15 14:22:32 2013
! VAR V_out= 3.3000
! VAR I_out= 1.9900
! VAR V_in= 0.8008
! VAR I_in= 0.0211
! Device data file deembeded for feedlines and parallel
! Original file: \03 Spar\BFU550A_APG2013_35_C05_03p3V_002mA_SP_CM01_R.s2p
! Feed-files: PR017V01_150413_Feed1.s2p, PR017V01_150413_Feed2.s2p
! Parallel-file: PR017V01_150413_Par.s2p
# MHz S MA R 50
!  Freq-MHz   S11-mag  S11-arg   S21-mag  S21-arg   S12-mag  S12-arg   S22-mag  S22-arg
         40   0.92545    -5.62    6.6828   175.02  0.010318    86.65   0.99606    -3.30
         50   0.92353    -7.10    6.6272   174.09  0.012936    85.54   0.99594    -4.20
         60   0.92211    -8.46    6.6426   172.30  0.015459    84.64   0.99329    -5.06
         70   0.92052    -9.88    6.6449   171.16  0.017974    83.85   0.99124    -5.87
         80   0.91837   -11.26    6.6152   169.86  0.020504    83.00   0.98944    -6.70
         90   0.91599   -12.62    6.5541   168.61   0.02297    82.12   0.98697    -7.53
        100   0.91344   -14.02    6.5594   167.42  0.025427    81.32   0.98431    -8.34
        120   0.90712   -16.85    6.5642   165.02  0.030309    79.74   0.97897    -9.95
        140   0.90009   -19.55    6.5075   162.67   0.03503    78.15   0.97188   -11.51
        160   0.89308   -22.24    6.4244   160.50   0.03981    76.43   0.96549   -13.03
        180   0.88434   -24.86    6.3397   158.13  0.044349    74.88    0.9564   -14.60
        200   0.87601   -27.50    6.2685   156.03  0.048716    73.39   0.94756   -16.06
        220    0.8663   -30.18    6.2533   153.80  0.052881    72.15   0.93776   -17.45
        240   0.85569   -32.79    6.1943   151.62  0.057042    70.67   0.92889   -18.83
        260   0.84573   -35.23    6.0964   149.48  0.061037    69.33   0.91912   -20.17
        280   0.83601   -37.65    5.9973   147.55  0.064886    68.02   0.90931   -21.48
        300   0.82434   -40.15    5.9306   145.54  0.068412    66.79    0.8976   -22.72
        320   0.81262   -42.71    5.8886   143.57  0.071981    65.56   0.88689   -23.97
        340   0.80143   -45.06    5.8056   141.68   0.07533    64.38   0.87584   -25.12
        360   0.78993   -47.37    5.7186   139.83  0.078644    63.30   0.86597   -26.22
        380   0.77884   -49.59    5.6147   138.02  0.081653    62.19   0.85399   -27.34
        400   0.76676   -51.89    5.5469   136.26  0.084651    61.24   0.84369   -28.28
        420   0.75452   -54.24    5.4805   134.44  0.087583    60.22   0.83319   -29.33
        433   0.74679   -55.60    5.4203   133.36  0.089378    59.61   0.82683   -29.91
        440   0.74289   -56.40    5.3969   132.77  0.090297    59.26   0.82291   -30.28
        460   0.73143   -58.55    5.3154   131.14  0.092956    58.32   0.81305   -31.27
        480   0.72066   -60.61     5.222   129.55  0.095321    57.41   0.80177   -32.18
        500   0.70788   -62.78     5.156   127.92  0.097756    56.59   0.79176   -33.02
        550   0.67866   -68.00    4.9684   124.05   0.10291    54.62   0.76492   -35.13
        600   0.65251   -72.80    4.7831   120.48   0.10779    52.95   0.74182   -36.98
        650   0.62756   -77.31    4.5784   117.18   0.11233    51.45   0.72127   -38.63
        700   0.60284   -81.92    4.4166   113.92   0.11593    50.10   0.69947   -40.28
        750   0.58093   -86.14    4.2364   110.97   0.11953    49.01   0.68045   -41.58
        800   0.55914   -90.36     4.087   108.09   0.12262    48.03   0.66236   -42.94
        850   0.53872   -94.52    3.9371   105.30   0.12551    47.15   0.64493   -44.16
        900   0.51959   -98.45    3.7961   102.71    0.1284    46.36   0.63146   -45.27
        950   0.50294  -102.26    3.6657   100.22   0.13027    45.83   0.61465   -46.47
       1000    0.4872  -105.94    3.5397    97.83   0.13258    45.33   0.60212   -47.42
       1050   0.47235  -109.61    3.4167    95.55   0.13443    45.03   0.58853   -48.34
       1100   0.45872  -113.19    3.3069    93.38   0.13639    44.74   0.57708   -49.26
       1150   0.44602  -116.74    3.2019    91.26   0.13853    44.38   0.56811   -50.07
       1200   0.43351  -120.11    3.1044    89.20   0.14004    44.31   0.55749   -51.01
       1250   0.42314  -123.48    3.0108    87.23   0.14191    44.20   0.54926   -51.81
       1300   0.41295  -126.64    2.9254    85.34   0.14336    44.25   0.54078   -52.64
       1350   0.40425  -129.90    2.8424    83.49   0.14488    44.39   0.53215   -53.41
       1400   0.39619  -133.24    2.7654    81.69   0.14644    44.48   0.52496   -54.19
       1450   0.38834  -136.30    2.6912    79.94   0.14808    44.69   0.51827   -54.91
       1500    0.3816  -139.51    2.6205    78.21   0.14974    44.85    0.5121   -55.73
       1550   0.37453  -142.44    2.5558    76.54   0.15144    45.09   0.50673   -56.49
       1600   0.36936  -145.39    2.4938    74.98   0.15299    45.48   0.50122   -57.26
       1650   0.36404  -148.33    2.4352    73.40   0.15479    45.84   0.49627   -58.00
       1700   0.35952  -151.25    2.3787    71.84   0.15664    46.40   0.49043   -58.67
       1750   0.35552  -154.15     2.325    70.33   0.15853    46.67    0.4868   -59.41
       1800   0.35233  -157.05    2.2742    68.82   0.16044    47.11    0.4822   -60.22
       1850   0.34873  -159.68    2.2259    67.36   0.16261    47.49   0.47998   -60.95
       1900   0.34589  -162.45    2.1788    65.94   0.16475    47.92   0.47662   -61.89
       1950   0.34287  -165.13    2.1341    64.57   0.16702    48.37    0.4733   -62.58
       2000   0.34209  -167.71    2.0916    63.21   0.16932    48.86   0.47067   -63.32
       2050   0.34045  -170.35      2.05    61.92   0.17166    49.37   0.46702   -64.09
       2100   0.33997  -172.88    2.0117    60.61   0.17425    49.89   0.46432   -64.85
       2150   0.33873  -175.57    1.9768    59.33   0.17704    50.35   0.46303   -65.75
       2200   0.33783  -177.99    1.9441    58.06   0.18002    50.78   0.46014   -66.62
       2250     0.336   179.66    1.9111    56.75   0.18298    51.13    0.4604   -67.41
       2300   0.33618   177.13    1.8768    55.54   0.18614    51.62   0.45765   -68.30
       2350   0.33791   174.77    1.8439    54.34   0.18873    51.97   0.45654   -69.15
       2400   0.33817   172.59    1.8145    53.17   0.19206    52.44   0.45517   -70.04
       2450   0.33862   170.24     1.786    51.98   0.19534    52.77   0.45309   -70.96
       2500   0.33838   168.04    1.7577    50.81   0.19868    53.19   0.45335   -71.87
       2600    0.3411   163.80    1.7057    48.60   0.20639    53.95   0.45086   -73.88
       2700   0.34658   159.62    1.6577    46.46   0.21449    54.64    0.4483   -75.63
       2800   0.34851   155.44    1.6128    44.30     0.223    55.13    0.4482   -77.61
       2900   0.35233   151.40    1.5715    42.22   0.23194    55.57   0.44705   -79.62
       3000   0.35856   147.61    1.5328    40.20   0.24164    55.92   0.44554   -81.53
       3100   0.36138   143.97    1.4962    38.18   0.25184    56.05   0.44578   -83.66
       3200    0.3658   140.47    1.4601    36.29   0.26243    56.09   0.44651   -85.76
       3300   0.37314   137.22    1.4269    34.38     0.273    56.20   0.44676   -87.93
       3400    0.3779   133.96    1.3953    32.57   0.28406    55.98   0.44728   -90.27
       3500   0.38178   130.71    1.3656    30.79   0.29566    55.62   0.44764   -92.64
       3600   0.39117   127.77    1.3381    29.09   0.30735    55.40   0.44787   -94.69
       3700   0.39675   124.76     1.311    27.38    0.3195    54.95   0.44782   -97.06
       3800   0.40135   121.68    1.2852    25.68   0.33174    54.33   0.44905   -99.70
       3900   0.41047   118.91    1.2612    24.11   0.34436    53.77   0.44954  -101.94
       4000   0.41596   116.22     1.238    22.58   0.35699    53.12   0.45011  -104.18
       4100   0.42112   113.47     1.215    20.93    0.3697    52.26    0.4507  -106.90
       4200    0.4298   110.87    1.1939    19.47   0.38262    51.45   0.45186  -109.43
       4300   0.43735   108.44    1.1734    18.02   0.39572    50.63   0.45285  -111.86
       4400   0.44031   105.79    1.1527    16.62   0.40824    49.56   0.45279  -114.43
       4500    0.4502   103.42    1.1354    15.21   0.42151    48.61   0.45506  -117.01
       4600    0.4567   101.21    1.1167    13.89   0.43434    47.56   0.45548  -119.49
       4700   0.45899    98.87    1.0981    12.57   0.44658    46.43   0.45558  -122.14
       4800   0.46869    96.64    1.0828    11.37   0.45973    45.32   0.45672  -124.77
       4900    0.4757    94.51    1.0659    10.13   0.47255    44.19   0.45876  -127.43
       5000   0.47761    92.46    1.0499     8.90   0.48425    42.99   0.45979  -130.19
       5200   0.49305    88.45    1.0226     6.73   0.50942    40.48   0.45985  -135.13
       5400   0.50117    84.50   0.99422     4.52   0.53216    37.90    0.4634  -140.85
       5600   0.51037    80.77   0.96958     2.53   0.55389    35.26   0.46454  -146.07
       5800   0.52481    77.40   0.94841     0.52   0.57496    32.48   0.46715  -151.27
       6000   0.53009    74.05   0.92583    -1.24   0.59285    29.86   0.46803  -156.89

