! Filename:  P:\Prog\Test\Noise\ATS_data\Testdata_Net\03 Spar\BFU550A_APG2013_35_C05_12p0V_025mA_SP_CM01_D.s2p
! Date/Time: Tue 16/Apr/2013 15:10:23
! BFU550A_APG2013_35_C05_12p0V_1to35mA_SP_CM01_Bias7_R.s2p
! MDIF S-parameter v. bias file
! BFU550A_APG2013_35_C05_12p0V_1to35mA_SP_CM01
! Date/time Mon Apr 15 17:55:46 2013
! VAR V_out= 12.0000
! VAR I_out= 24.9950
! VAR V_in= 0.7616
! VAR I_in= 0.2364
! Device data file deembeded for feedlines and parallel
! Original file: \03 Spar\BFU550A_APG2013_35_C05_12p0V_025mA_SP_CM01_R.s2p
! Feed-files: PR017V01_150413_Feed1.s2p, PR017V01_150413_Feed2.s2p
! Parallel-file: PR017V01_150413_Par.s2p
# MHz S MA R 50
!  Freq-MHz   S11-mag  S11-arg   S21-mag  S21-arg   S12-mag  S12-arg   S22-mag  S22-arg
         40   0.53598   -21.05    38.407   162.11 0.0075419    80.43   0.93939   -11.60
         50    0.5214   -26.29     37.41   158.08 0.0093149    78.84   0.92097   -14.79
         60   0.50754   -30.93    36.317   154.02  0.010965    77.61   0.89794   -17.38
         70   0.49422   -35.57     35.27   150.63  0.012516    76.25   0.87365   -19.73
         80   0.47928   -40.11    34.183   147.15  0.014003    75.25   0.84928   -21.87
         90   0.46287   -44.23     32.96   143.94  0.015388    74.21   0.82448   -23.75
        100    0.4489   -48.18    31.841   141.03  0.016744    73.37   0.80042   -25.53
        120   0.41762   -55.82    29.652   135.53  0.019213    71.91   0.75243   -28.56
        140   0.39091   -62.25    27.475   130.92  0.021473    71.09   0.70729   -30.83
        160   0.36493   -68.40    25.462   126.86  0.023683    70.42   0.66763   -32.57
        180   0.34205   -74.09    23.686   123.28  0.025748    70.07   0.63111   -33.97
        200   0.32146   -78.94     22.05   120.17  0.027723    69.93   0.59921   -34.96
        220   0.30484   -83.60    20.679   117.37  0.029625    70.03    0.5721   -35.73
        240   0.28795   -87.97    19.376   114.87  0.031512    70.15   0.54727   -36.24
        260   0.27373   -92.15    18.227   112.61  0.033379    70.33   0.52577   -36.65
        280   0.26171   -95.93    17.187   110.66  0.035234    70.49   0.50676   -36.88
        300   0.25064   -99.57     16.24   108.82  0.037138    70.69   0.49025   -37.00
        320   0.24101  -102.88    15.389   107.21  0.038977    70.93   0.47506   -37.13
        340   0.23148  -106.09    14.618   105.63  0.040855    71.17   0.46165   -37.07
        360   0.22436  -109.29    13.927   104.25  0.042737    71.39   0.45011   -37.10
        380   0.21702  -112.24    13.277   102.92  0.044564    71.53   0.43895   -37.07
        400   0.21084  -114.95    12.697   101.70  0.046452    71.87   0.42976   -36.90
        420   0.20555  -117.71     12.16   100.51  0.048363    72.03   0.42103   -36.88
        433    0.2018  -119.77    11.838    99.80  0.049577    72.12   0.41604   -36.78
        440   0.20009  -120.65    11.665    99.41  0.050246    72.18    0.4133   -36.75
        460   0.19549  -122.94    11.202    98.41  0.052138    72.33   0.40642   -36.74
        480   0.19217  -125.53     10.78    97.42  0.054043    72.47   0.39953   -36.64
        500   0.18805  -127.95    10.386    96.50  0.055942    72.57     0.394   -36.58
        550   0.17954  -133.96    9.5315    94.22  0.060601    72.89   0.37952   -36.31
        600   0.17336  -138.93    8.7969    92.29  0.065446    73.08   0.37024   -36.28
        650     0.169  -144.09    8.1649    90.48  0.070255    73.20   0.36215   -36.35
        700    0.1648  -148.70    7.6181    88.76  0.075072    73.27   0.35531   -36.39
        750   0.16206  -153.03    7.1391    87.19  0.079916    73.32   0.34927   -36.44
        800   0.15971  -157.01    6.7213    85.70  0.084751    73.29   0.34464   -36.76
        850   0.15852  -161.33     6.348    84.24  0.089572    73.23    0.3393   -37.00
        900   0.15715  -165.14    6.0151    82.87  0.094452    73.16   0.33569   -37.31
        950   0.15619  -168.50     5.718    81.53  0.099333    73.03    0.3328   -37.80
       1000   0.15491  -171.72    5.4484    80.22   0.10423    72.89   0.33003   -38.13
       1050   0.15534  -175.08    5.1997    78.99   0.10911    72.72   0.32762   -38.58
       1100   0.15587  -178.23    4.9779    77.78   0.11402    72.51   0.32546   -39.13
       1150   0.15657   178.89    4.7736    76.60   0.11893    72.29   0.32297   -39.61
       1200   0.15681   175.96    4.5872    75.45   0.12384    72.05    0.3215   -40.32
       1250   0.15749   173.34    4.4142    74.31   0.12875    71.79   0.31989   -40.94
       1300   0.15762   170.83    4.2561    73.21   0.13368    71.52   0.31905   -41.56
       1350   0.15884   168.32    4.1096    72.11   0.13856    71.21   0.31771   -42.31
       1400   0.16082   165.84    3.9741    71.04   0.14352    70.93   0.31587   -42.94
       1450   0.16175   163.50    3.8478    69.98   0.14842    70.62   0.31489   -43.65
       1500   0.16375   161.11    3.7265    68.92   0.15335    70.27   0.31342   -44.54
       1550   0.16414   159.09    3.6163    67.89   0.15828    69.93   0.31268   -45.30
       1600   0.16522   156.94    3.5118    66.91   0.16319    69.62   0.31237   -46.12
       1650   0.16727   155.06    3.4146    65.91   0.16816    69.26   0.31164   -46.92
       1700   0.16886   153.18    3.3228    64.92   0.17311    68.90   0.31115   -47.72
       1750   0.17107   151.22    3.2373    63.94   0.17794    68.54   0.30982   -48.59
       1800   0.17398   149.48    3.1574    62.95   0.18289    68.17    0.3083   -49.49
       1850   0.17462   147.68    3.0803    61.96   0.18789    67.80   0.30872   -50.39
       1900   0.17636   145.93    3.0054    60.99   0.19279    67.36   0.30832   -51.52
       1950   0.17762   144.04    2.9358    60.06   0.19759    66.99   0.30761   -52.34
       2000   0.18051   142.90    2.8689    59.15   0.20242    66.60   0.30743   -53.27
       2050   0.18283   141.38    2.8052    58.27   0.20716    66.23   0.30592   -54.15
       2100   0.18585   140.21    2.7472    57.40   0.21214    65.90   0.30486   -55.09
       2150   0.18944   138.37    2.6933    56.53    0.2173    65.52   0.30478   -56.18
       2200   0.19108   136.79    2.6438    55.61   0.22244    65.06   0.30363   -57.18
       2250   0.19158   135.09    2.5935    54.64   0.22736    64.61   0.30505   -58.19
       2300   0.19427   133.75    2.5423    53.75   0.23218    64.16   0.30433   -59.23
       2350   0.19804   132.77    2.4945    52.91   0.23692    63.75   0.30302   -60.16
       2400   0.20014   131.64    2.4499    52.06   0.24175    63.34   0.30307   -61.22
       2450   0.20322   130.22    2.4077    51.18   0.24656    62.92   0.30152   -62.31
       2500   0.20504   128.81    2.3671    50.33   0.25156    62.53     0.302   -63.37
       2600   0.21025   126.62    2.2911    48.67   0.26118    61.65    0.3015   -65.74
       2700     0.218   124.85    2.2216    47.07   0.27114    60.89   0.29965   -67.73
       2800   0.22309   121.95     2.157    45.39   0.28117    59.99   0.29987   -69.95
       2900   0.22921   119.47    2.0989    43.77   0.29107    59.12   0.29887   -72.15
       3000   0.23693   117.40    2.0454    42.17   0.30127    58.23   0.29731   -74.09
       3100   0.24029   115.20    1.9929    40.51   0.31124    57.25   0.29824   -76.42
       3200   0.24469   113.21    1.9432    38.94   0.32115    56.30   0.29916   -78.73
       3300   0.25222   111.51     1.898    37.40   0.33105    55.37   0.29816   -80.78
       3400   0.25735   109.72    1.8545    35.88   0.34059    54.38   0.29859   -83.40
       3500   0.26169   107.74    1.8143    34.36   0.35012    53.38   0.29966   -86.08
       3600   0.27046   106.23     1.778    32.90   0.35998    52.51    0.2987   -88.04
       3700   0.27591   104.43     1.743    31.39   0.36979    51.54   0.29798   -90.56
       3800    0.2809   102.48    1.7087    29.89   0.37946    50.48   0.29897   -93.52
       3900   0.28944   100.90    1.6775    28.45   0.38927    49.51   0.29897   -95.61
       4000   0.29411    99.37    1.6473    27.04   0.39887    48.54   0.29887   -97.88
       4100    0.2995    97.62    1.6183    25.54   0.40823    47.47   0.29956  -100.82
       4200   0.30788    96.15    1.5917    24.14   0.41786    46.44   0.29995  -103.30
       4300   0.31458    94.74    1.5662    22.74   0.42754    45.41   0.29986  -105.58
       4400   0.31794    92.95    1.5389    21.37   0.43649    44.34   0.30061  -108.38
       4500   0.32754    91.61     1.517    19.98   0.44617    43.29   0.30201  -110.89
       4600   0.33353    90.28    1.4939    18.64   0.45538    42.24   0.30276  -113.28
       4700   0.33601    88.78    1.4708    17.32   0.46397    41.17   0.30313  -116.02
       4800   0.34572    87.42     1.451    16.04   0.47351    40.11   0.30392  -118.58
       4900   0.35312    86.08    1.4299    14.71   0.48248    39.02   0.30515  -121.17
       5000   0.35548    84.77    1.4098    13.43   0.49086    37.94   0.30631  -124.05
       5200   0.37145    82.34    1.3744    10.96   0.50903    35.76   0.30823  -128.59
       5400   0.38154    79.66     1.339     8.46   0.52501    33.53   0.31161  -134.39
       5600   0.39294    77.16    1.3058     6.11   0.54118    31.31   0.31453  -139.60
       5800   0.40988    74.98    1.2771     3.69   0.55688    29.01   0.31976  -144.57
       6000   0.41856    72.59     1.246     1.50    0.5703    26.84   0.32181  -150.39

