! Filename:  P:\Prog\Test\Noise\ATS_data\Testdata_Net\03 Spar\BFU550A_APG2013_35_C05_12p0V_001mA_SP_CM01_D.s2p
! Date/Time: Tue 16/Apr/2013 15:10:19
! BFU550A_APG2013_35_C05_12p0V_1to35mA_SP_CM01_Bias1_R.s2p
! MDIF S-parameter v. bias file
! BFU550A_APG2013_35_C05_12p0V_1to35mA_SP_CM01
! Date/time Mon Apr 15 17:55:46 2013
! bias mode 1
! bias variable = I_out
! VAR bias_var= 1
! VAR V_out= 12.0010
! VAR I_out= 1.0000
! VAR V_in= 0.7782
! VAR I_in= 0.0076
! Device data file deembeded for feedlines and parallel
! Original file: \03 Spar\BFU550A_APG2013_35_C05_12p0V_001mA_SP_CM01_R.s2p
! Feed-files: PR017V01_150413_Feed1.s2p, PR017V01_150413_Feed2.s2p
! Parallel-file: PR017V01_150413_Par.s2p
# MHz S MA R 50
!  Freq-MHz   S11-mag  S11-arg   S21-mag  S21-arg   S12-mag  S12-arg   S22-mag  S22-arg
         40   0.97207    -3.96    3.4475   176.75 0.0096655    86.96   0.99776    -1.92
         50   0.97024    -4.92    3.4395   175.76  0.012136    86.12   0.99792    -2.71
         60   0.96944    -5.90    3.4216   174.23  0.014619    85.42   0.99722    -3.26
         70   0.96961    -6.89    3.4322   173.69  0.017002    84.84   0.99558    -3.81
         80   0.96841    -7.89    3.4331   172.68  0.019411    84.32   0.99454    -4.33
         90   0.96719    -8.85    3.3988   171.64  0.021785    83.67    0.9938    -4.85
        100   0.96609    -9.84    3.4029   170.91  0.024192    83.11   0.99307    -5.38
        120    0.9635   -11.84    3.4316   169.13   0.02892    81.86   0.99161    -6.47
        140   0.96074   -13.76    3.4111   167.50  0.033556    80.67   0.98804    -7.53
        160   0.95768   -15.71    3.3968   165.73  0.038304    79.34   0.98617    -8.54
        180   0.95397   -17.62    3.3665   164.02  0.042893    78.08    0.9826    -9.64
        200   0.94993   -19.53    3.3457   162.31  0.047374    76.86   0.97871   -10.69
        220   0.94564   -21.49    3.3633   160.67  0.051712    75.85    0.9747   -11.67
        240   0.94049   -23.44    3.3577   158.90  0.056103    74.58   0.97129   -12.69
        260   0.93575   -25.29    3.3252   157.23  0.060405    73.44   0.96711   -13.69
        280   0.93107   -27.08    3.2841   155.67  0.064604    72.27   0.96282   -14.68
        300   0.92482   -28.97    3.2705   154.00   0.06861    71.11   0.95745   -15.66
        320   0.91924   -30.92    3.2777   152.47  0.072622    69.99    0.9522   -16.63
        340   0.91296   -32.77    3.2585   150.84  0.076517    68.89    0.9468   -17.54
        360   0.90759   -34.59    3.2355   149.33  0.080443    67.84   0.94259   -18.43
        380   0.90084   -36.31    3.1921   147.67  0.084059    66.68   0.93623   -19.39
        400   0.89462   -38.14    3.1773   146.29  0.087635    65.72   0.93048   -20.19
        420   0.88762   -40.02      3.17   144.70  0.091262    64.70   0.92541   -21.07
        433   0.88263   -41.16    3.1509   143.73   0.09349    64.02    0.9221   -21.58
        440    0.8807   -41.80    3.1469   143.20  0.094681    63.63   0.92001   -21.91
        460   0.87363   -43.58    3.1252   141.79  0.098053    62.63   0.91466   -22.77
        480   0.86699   -45.27    3.0891   140.30   0.10122    61.60   0.90811   -23.62
        500   0.85907   -47.09    3.0798   138.85   0.10436    60.66   0.90222   -24.41
        550   0.83985   -51.49    3.0244   135.27   0.11152    58.27   0.88591   -26.41
        600   0.82183   -55.69    2.9743   131.87   0.11826    56.10   0.87133   -28.28
        650   0.80364   -59.67    2.8882   128.61   0.12457    54.00    0.8578   -30.03
        700   0.78388   -63.82    2.8437   125.32   0.12982    51.98   0.84206   -31.81
        750   0.76626   -67.67     2.765   122.27   0.13495    50.16   0.82824   -33.31
        800   0.74707   -71.62    2.7165   119.26   0.13938    48.42   0.81392   -34.86
        850   0.72801   -75.51    2.6553   116.23    0.1434    46.70   0.80011   -36.34
        900   0.70982   -79.22    2.5967   113.42   0.14737    45.15   0.78919   -37.65
        950   0.69345   -82.93    2.5449   110.63   0.14975    43.66   0.77378   -39.20
       1000   0.67709   -86.43    2.4837   107.98   0.15259    42.32   0.76287   -40.40
       1050   0.66066   -89.97    2.4231   105.36   0.15457    41.13   0.74987   -41.60
       1100    0.6452   -93.47      2.37   102.84   0.15641    39.95   0.73871   -42.81
       1150   0.63075   -96.94    2.3169   100.41   0.15868    38.78   0.73102   -43.83
       1200    0.6152  -100.31    2.2702    97.99   0.15934    37.83   0.71918   -45.08
       1250   0.60216  -103.59    2.2187    95.69   0.16073    36.91   0.71139   -46.08
       1300   0.58892  -106.81    2.1769    93.46   0.16091    36.12   0.70171   -47.21
       1350   0.57695  -110.05    2.1285    91.25   0.16109    35.50   0.69198   -48.23
       1400   0.56495  -113.35    2.0859    89.12   0.16127    34.82   0.68424   -49.23
       1450   0.55418  -116.45    2.0409    87.05   0.16128    34.34   0.67703   -50.14
       1500   0.54336  -119.67    1.9994    84.97   0.16114    33.85   0.66975   -51.16
       1550   0.53372  -122.61    1.9613    83.01   0.16084    33.49    0.6636   -52.11
       1600   0.52445  -125.69    1.9243    81.14    0.1598    33.40    0.6562   -53.11
       1650   0.51605  -128.71    1.8887    79.28   0.15921    33.32   0.64995   -54.03
       1700   0.50786  -131.70    1.8528    77.42   0.15811    33.63   0.64177   -54.87
       1750   0.50043  -134.72    1.8174    75.62   0.15764    33.49    0.6384   -55.72
       1800   0.49421  -137.76    1.7853    73.80   0.15673    33.68   0.63267   -56.66
       1850   0.48755  -140.51    1.7528    72.09   0.15622    33.84   0.63037   -57.51
       1900   0.48185  -143.41    1.7214    70.44   0.15524    34.29   0.62536   -58.55
       1950   0.47548  -146.21     1.691    68.83   0.15461    34.76   0.62146   -59.33
       2000   0.47181  -149.08    1.6624    67.22   0.15376    35.47   0.61724   -60.19
       2050   0.46674  -151.91    1.6335    65.71   0.15296    36.21   0.61283   -61.05
       2100   0.46352  -154.64     1.607    64.16   0.15245    37.08   0.60946   -61.87
       2150   0.45957  -157.46    1.5833    62.65   0.15223    37.90   0.60781   -62.85
       2200   0.45637  -160.08    1.5604    61.16   0.15213    38.88   0.60426   -63.80
       2250   0.45295  -162.72    1.5372    59.66    0.1522    39.78   0.60411   -64.66
       2300   0.45047  -165.47    1.5114    58.29   0.15256    41.18   0.59978   -65.63
       2350   0.44916  -168.21    1.4872    56.89   0.15219    42.04   0.59975   -66.56
       2400   0.44788  -170.71    1.4658    55.56   0.15309    43.46   0.59729   -67.50
       2450    0.4455  -173.32    1.4452    54.19   0.15399    44.64   0.59492   -68.46
       2500   0.44371  -175.74    1.4239    52.84   0.15479    45.97    0.5954   -69.43
       2600   0.44287   179.29     1.385    50.34   0.15886    48.89   0.59115   -71.51
       2700   0.44479   174.39    1.3478    47.94   0.16405    51.65    0.5884   -73.36
       2800   0.44385   169.59    1.3134    45.52   0.17028    54.15    0.5881   -75.41
       2900   0.44541   164.94    1.2809    43.22   0.17796    56.50   0.58657   -77.54
       3000   0.44906   160.41    1.2497    41.03   0.18737    58.58   0.58481   -79.61
       3100   0.45004   156.04    1.2206    38.89   0.19816    60.27   0.58448   -81.80
       3200   0.45262   151.81    1.1916    36.87    0.2101    61.55   0.58456   -83.95
       3300   0.45855   147.82    1.1636    34.87   0.22249    62.85   0.58474   -86.35
       3400   0.46187   143.86    1.1383    32.98   0.23605    63.46   0.58492   -88.74
       3500   0.46415   139.92    1.1143    31.15   0.25083    63.64   0.58407   -91.09
       3600    0.4723   136.25    1.0904    29.45   0.26551    63.94   0.58441   -93.33
       3700    0.4767   132.56    1.0678    27.77   0.28126    63.81   0.58385   -95.79
       3800   0.48032   128.89    1.0469    26.10   0.29706    63.37   0.58457   -98.47
       3900   0.48823   125.46    1.0267    24.61    0.3135    62.89   0.58436  -100.86
       4000   0.49264   122.12    1.0069    23.21   0.33004    62.22   0.58405  -103.20
       4100   0.49626   118.79   0.98775    21.68   0.34685    61.24   0.58326  -105.96
       4200   0.50406   115.64   0.96997    20.34   0.36383    60.33   0.58386  -108.69
       4300   0.51046   112.65   0.95349    19.09   0.38092    59.35   0.58427  -111.30
       4400   0.51175   109.43   0.93692    17.88   0.39707    57.95   0.58189  -113.81
       4500   0.52046   106.53   0.92299    16.67   0.41407    56.76   0.58281  -116.56
       4600   0.52584   103.84   0.90848    15.59   0.43055    55.43   0.58172  -119.16
       4700   0.52595   101.04   0.89381    14.54   0.44619    53.97   0.58007  -121.82
       4800   0.53413    98.33   0.88278    13.62   0.46257    52.53   0.57892  -124.53
       4900   0.53964    95.79   0.87009    12.62   0.47876    51.12   0.57976  -127.42
       5000   0.53966    93.33   0.85897    11.67   0.49326    49.57   0.57905  -130.17
       5200   0.55073    88.61   0.84173    10.03   0.52354    46.38   0.57339  -135.23
       5400   0.55508    84.05   0.82305     8.38   0.55084    43.16   0.57291  -141.12
       5600   0.55932    79.69   0.80936     6.88   0.57567    39.91   0.56881  -146.33
       5800   0.56923    75.90   0.79908     5.31    0.5994    36.55   0.56559  -151.62
       6000   0.56964    72.15   0.78723     3.99   0.61895    33.43   0.56143  -157.20

