! Filename:  P:\Prog\Test\Noise\ATS_data\Testdata_Net\03 Spar\BFU550A_APG2013_35_C05_12p0V_015mA_SP_CM01_D.s2p
! Date/Time: Tue 16/Apr/2013 15:10:20
! BFU550A_APG2013_35_C05_12p0V_1to35mA_SP_CM01_Bias6_R.s2p
! MDIF S-parameter v. bias file
! BFU550A_APG2013_35_C05_12p0V_1to35mA_SP_CM01
! Date/time Mon Apr 15 17:55:46 2013
! VAR V_out= 12.0010
! VAR I_out= 14.9950
! VAR V_in= 0.7887
! VAR I_in= 0.1391
! Device data file deembeded for feedlines and parallel
! Original file: \03 Spar\BFU550A_APG2013_35_C05_12p0V_015mA_SP_CM01_R.s2p
! Feed-files: PR017V01_150413_Feed1.s2p, PR017V01_150413_Feed2.s2p
! Parallel-file: PR017V01_150413_Par.s2p
# MHz S MA R 50
!  Freq-MHz   S11-mag  S11-arg   S21-mag  S21-arg   S12-mag  S12-arg   S22-mag  S22-arg
         40   0.64284   -16.05    30.662   165.38 0.0080878    80.84   0.95659    -9.49
         50   0.63142   -20.14    30.055   162.04 0.0099927    79.43   0.94349   -12.15
         60   0.61964   -23.81    29.461   158.61  0.011784    78.00   0.92819   -14.47
         70   0.60868   -27.58    28.897   155.77  0.013544    76.88   0.91055   -16.57
         80   0.59543   -31.23    28.278   152.74  0.015222    75.81   0.89271   -18.55
         90   0.58127   -34.62     27.54   149.89  0.016805    74.69   0.87384   -20.35
        100   0.56767   -37.97    26.898   147.27  0.018372    73.74   0.85513   -22.09
        120   0.53694   -44.48     25.57   142.13  0.021231    71.92    0.8164   -25.25
        140   0.50904   -50.18    24.133   137.70  0.023843    70.61   0.77708   -27.83
        160   0.48064   -55.60    22.735   133.65  0.026334    69.47   0.74097   -29.99
        180   0.45405   -60.66    21.451   129.97  0.028622    68.67   0.70571   -31.87
        200     0.429   -65.14    20.218   126.68  0.030733    68.07   0.67364   -33.34
        220   0.40751   -69.42    19.165   123.69  0.032757    67.80   0.64556   -34.59
        240   0.38533   -73.43    18.117   120.95  0.034717    67.51   0.61887   -35.59
        260   0.36623   -77.15    17.172   118.46  0.036617    67.40   0.59497   -36.44
        280   0.34945   -80.69    16.297   116.30  0.038505    67.37    0.5733   -37.08
        300   0.33328   -84.13    15.491   114.22  0.040334    67.36   0.55413   -37.59
        320   0.31928   -87.17     14.75   112.39  0.042145    67.40   0.53612   -38.05
        340   0.30532   -90.13    14.068   110.62  0.043948    67.52   0.51989   -38.32
        360   0.29427   -93.04    13.452   109.05  0.045782    67.68   0.50567   -38.63
        380   0.28258   -95.83    12.864   107.53  0.047532    67.77   0.49182   -38.84
        400   0.27256   -98.40    12.335   106.14  0.049342    67.98   0.48009   -38.91
        420   0.26361  -101.09    11.845   104.79  0.051145    68.13   0.46906   -39.06
        433   0.25767  -102.81    11.548   103.97   0.05229    68.24   0.46253   -39.08
        440   0.25495  -103.67    11.388   103.54  0.052943    68.27   0.45905   -39.13
        460   0.24742  -105.91    10.957   102.39  0.054726    68.46   0.44999   -39.25
        480    0.2408  -108.39    10.562   101.27  0.056502    68.61   0.44104   -39.29
        500   0.23361  -110.66    10.191   100.22  0.058305    68.74   0.43353   -39.33
        550   0.21821  -116.53    9.3842    97.64  0.062732    69.10   0.41466   -39.33
        600   0.20655  -121.44    8.6833    95.46  0.067342    69.42   0.40168   -39.41
        650    0.1968  -126.57    8.0748    93.43  0.071939    69.68   0.39047   -39.55
        700   0.18847  -131.29    7.5467    91.53  0.076511    69.88   0.38086   -39.64
        750   0.18156  -135.87    7.0815    89.79  0.081108    70.06   0.37239   -39.69
        800   0.17614  -140.24    6.6748    88.16  0.085759    70.15   0.36577   -39.97
        850    0.1715  -144.79    6.3098    86.56  0.090387    70.23   0.35863   -40.20
        900   0.16685  -148.98    5.9835    85.07  0.095074    70.28   0.35341   -40.46
        950   0.16394  -152.80     5.692    83.62  0.099751    70.27   0.34915   -40.88
       1000   0.16073  -156.49    5.4264    82.21   0.10447    70.25    0.3451   -41.15
       1050   0.15889  -160.32    5.1823    80.89   0.10919    70.19   0.34156   -41.53
       1100   0.15758  -164.04    4.9631    79.59   0.11393    70.07   0.33847   -42.00
       1150   0.15675  -167.40    4.7613    78.34   0.11867    69.95   0.33508   -42.42
       1200   0.15564  -170.84    4.5766    77.12   0.12342    69.81   0.33289   -43.04
       1250    0.1552  -174.07    4.4057    75.92   0.12821    69.64   0.33055   -43.59
       1300   0.15409  -176.95    4.2492    74.76   0.13298    69.44   0.32907   -44.13
       1350   0.15428  -179.87     4.104    73.61   0.13776    69.22   0.32715   -44.81
       1400   0.15539   176.93    3.9699    72.48   0.14252    69.01   0.32482   -45.36
       1450   0.15553   174.26    3.8441    71.37    0.1473    68.77   0.32337   -46.00
       1500   0.15692   171.29    3.7243    70.26   0.15212    68.51   0.32149   -46.82
       1550   0.15689   168.90    3.6146    69.19   0.15694    68.24   0.32037   -47.51
       1600   0.15746   166.43    3.5105    68.17   0.16173    67.97    0.3197   -48.26
       1650   0.15876   164.13    3.4136    67.14   0.16659    67.68   0.31866   -49.00
       1700    0.1599   161.86     3.323    66.11   0.17138    67.39   0.31788   -49.72
       1750   0.16169   159.50    3.2375    65.09   0.17611    67.07   0.31627   -50.54
       1800   0.16474   157.25    3.1581    64.07   0.18096    66.76   0.31454   -51.37
       1850   0.16495   155.35     3.081    63.05   0.18582    66.44    0.3147   -52.21
       1900   0.16642   153.19    3.0066    62.05   0.19065    66.05   0.31415   -53.28
       1950   0.16766   151.05    2.9373    61.10   0.19537    65.72   0.31322   -54.05
       2000   0.17035   149.56     2.871    60.16   0.20011    65.39   0.31286   -54.93
       2050   0.17221   147.71    2.8073    59.25   0.20476    65.06   0.31124   -55.76
       2100   0.17554   146.34    2.7489    58.36   0.20963    64.77   0.31005   -56.64
       2150   0.17884   144.06    2.6955    57.47   0.21471    64.43   0.30981   -57.68
       2200   0.17988   142.33    2.6465    56.52   0.21973    64.02   0.30855   -58.64
       2250   0.18041   140.49     2.596    55.55   0.22457    63.60   0.30983   -59.58
       2300    0.1834   138.99    2.5452    54.63    0.2293    63.19   0.30902   -60.58
       2350   0.18723   137.72    2.4976    53.77   0.23395    62.82   0.30757   -61.47
       2400   0.18946   136.48    2.4533    52.90   0.23871    62.44   0.30754   -62.48
       2450   0.19213   134.76    2.4111    52.01   0.24344    62.05   0.30593   -63.54
       2500   0.19366   133.15    2.3706    51.15   0.24838    61.70   0.30634   -64.55
       2600   0.19912   130.72    2.2943    49.45   0.25787    60.89   0.30572   -66.84
       2700   0.20723   128.61    2.2255    47.81   0.26766    60.17   0.30375   -68.76
       2800   0.21196   125.48    2.1608    46.11   0.27756    59.34   0.30387   -70.90
       2900   0.21826   122.76    2.1029    44.47   0.28737    58.52   0.30279   -73.03
       3000   0.22595   120.51    2.0494    42.84   0.29744    57.68   0.30115   -74.91
       3100   0.22881   118.14    1.9972    41.17   0.30729    56.75     0.302   -77.16
       3200   0.23387   115.89    1.9474    39.57    0.3171    55.84   0.30284   -79.40
       3300    0.2415   114.15    1.9024    38.00   0.32693    54.96   0.30179   -81.41
       3400   0.24666   112.12    1.8591    36.47   0.33642    54.01    0.3022   -83.96
       3500   0.25137   110.10    1.8189    34.92   0.34591    53.05   0.30324   -86.57
       3600   0.26016   108.39    1.7826    33.45   0.35566    52.22   0.30222   -88.48
       3700   0.26545   106.54    1.7475    31.93   0.36548    51.28   0.30154   -90.96
       3800   0.27114   104.40    1.7135    30.41   0.37509    50.26   0.30248   -93.85
       3900   0.27927   102.84    1.6821    28.96    0.3849    49.32   0.30247   -95.89
       4000   0.28452   101.20    1.6522    27.52   0.39446    48.38   0.30234   -98.11
       4100   0.28978    99.31    1.6231    26.02   0.40383    47.34   0.30304  -100.99
       4200   0.29843    97.78    1.5965    24.59   0.41347    46.33   0.30341  -103.43
       4300   0.30518    96.30    1.5712    23.19   0.42311    45.33   0.30325  -105.67
       4400   0.30865    94.47    1.5437    21.79   0.43206    44.29   0.30403  -108.43
       4500   0.31846    93.03    1.5219    20.40   0.44177    43.26   0.30541  -110.90
       4600   0.32478    91.65    1.4992    19.05   0.45101    42.24   0.30612  -113.25
       4700   0.32716    90.15     1.476    17.71   0.45968    41.18   0.30648  -115.95
       4800    0.3372    88.70    1.4558    16.43   0.46922    40.15   0.30725  -118.47
       4900    0.3444    87.34     1.435    15.06   0.47827    39.08   0.30845  -121.03
       5000   0.34709    86.00    1.4151    13.79   0.48672    38.00   0.30965  -123.87
       5200   0.36319    83.49    1.3794    11.29   0.50504    35.86   0.31153  -128.36
       5400   0.37395    80.81    1.3437     8.77   0.52116    33.65   0.31488  -134.09
       5600   0.38552    78.18     1.311     6.40   0.53754    31.46   0.31774  -139.25
       5800   0.40264    75.92    1.2822     3.97   0.55347    29.18   0.32299  -144.19
       6000   0.41201    73.50     1.251     1.75   0.56714    27.03   0.32496  -149.96

