! Filename:  P:\Prog\Test\Noise\ATS_data\Testdata_Net\03 Spar\BFU550A_APG2013_35_C05_08p0V_003mA_SP_CM01_D.s2p
! Date/Time: Tue 16/Apr/2013 15:10:21
! BFU550A_APG2013_35_C05_08p0V_1to35mA_SP_CM01_Bias3_R.s2p
! MDIF S-parameter v. bias file
! BFU550A_APG2013_35_C05_08p0V_1to35mA_SP_CM01
! Date/time Mon Apr 15 16:50:27 2013
! VAR V_out= 8.0000
! VAR I_out= 3.0000
! VAR V_in= 0.8035
! VAR I_in= 0.0303
! Device data file deembeded for feedlines and parallel
! Original file: \03 Spar\BFU550A_APG2013_35_C05_08p0V_003mA_SP_CM01_R.s2p
! Feed-files: PR017V01_150413_Feed1.s2p, PR017V01_150413_Feed2.s2p
! Parallel-file: PR017V01_150413_Par.s2p
# MHz S MA R 50
!  Freq-MHz   S11-mag  S11-arg   S21-mag  S21-arg   S12-mag  S12-arg   S22-mag  S22-arg
         40   0.89616    -6.72    9.6235   173.97 0.0094086    85.92   0.99357    -3.96
         50   0.89315    -8.44    9.5416   172.39  0.011867    84.74   0.99281    -5.13
         60   0.89012   -10.01    9.5049   170.60   0.01421    83.85   0.98913    -6.08
         70   0.88812   -11.73    9.5014   169.41  0.016505    83.03   0.98599    -7.05
         80   0.88442   -13.40    9.4691   167.80  0.018805    82.05   0.98297    -8.04
         90   0.88072   -14.95    9.3584   166.25  0.021032    81.07   0.97905    -9.02
        100   0.87691   -16.61    9.3367   164.96  0.023269    80.25   0.97478    -9.97
        120   0.86714   -19.95     9.316   162.09  0.027652    78.46   0.96654   -11.84
        140   0.85739   -23.08    9.1823   159.46  0.031854    76.73   0.95581   -13.65
        160   0.84639   -26.20    9.0323   156.86  0.036054    74.96   0.94584   -15.40
        180   0.83439   -29.22    8.8784   154.25  0.039975    73.33   0.93254   -17.16
        200   0.82193   -32.22    8.7355   151.80  0.043737    71.79    0.9198   -18.79
        220   0.80838   -35.26    8.6642   149.32  0.047304    70.53   0.90623   -20.29
        240    0.7934   -38.19    8.5248   146.88  0.050774    69.08   0.89341   -21.79
        260   0.77974   -40.95    8.3559   144.55  0.054085    67.75   0.87973   -23.22
        280   0.76654   -43.62    8.1806   142.43  0.057183    66.51   0.86595   -24.60
        300   0.75097   -46.41    8.0465   140.21  0.060119    65.38   0.85093   -25.85
        320   0.73552   -49.17    7.9278   138.11  0.062975    64.27   0.83701   -27.11
        340   0.72038   -51.70    7.7695   136.07  0.065649    63.19   0.82278   -28.25
        360   0.70668   -54.18    7.6133   134.16  0.068285    62.26   0.81007   -29.34
        380   0.69193   -56.56    7.4422   132.24  0.070657    61.32    0.7954   -30.41
        400   0.67729   -58.99    7.3076   130.40  0.073009    60.55   0.78258   -31.28
        420   0.66287   -61.40    7.1691   128.56  0.075279    59.72   0.76989   -32.24
        433   0.65357   -62.88    7.0732   127.46  0.076677    59.22   0.76213   -32.78
        440   0.64885   -63.72    7.0273   126.84    0.0774    58.95   0.75757   -33.12
        460   0.63555   -65.91    6.8792   125.21  0.079459    58.24   0.74575   -34.00
        480   0.62277   -68.06    6.7325   123.60  0.081333    57.57   0.73305   -34.80
        500   0.60868   -70.25    6.6044   122.02  0.083188    56.97   0.72184   -35.55
        550   0.57624   -75.57    6.2921   118.17  0.087257    55.62   0.69243   -37.32
        600    0.5481   -80.33     5.986   114.77  0.091184    54.60   0.66822   -38.82
        650   0.52246   -84.92    5.6853   111.63  0.094884    53.72   0.64645   -40.16
        700   0.49749   -89.39     5.426   108.59  0.098041    53.05   0.62515   -41.40
        750   0.47585   -93.57    5.1699   105.86   0.10118    52.54   0.60629   -42.39
        800   0.45529   -97.71    4.9471   103.23   0.10416    52.20   0.58935   -43.38
        850   0.43595  -101.80     4.735   100.70   0.10697    51.89   0.57308   -44.28
        900    0.4185  -105.66    4.5388    98.37    0.1098    51.67   0.55996   -45.11
        950   0.40323  -109.38    4.3594    96.11   0.11228    51.66   0.54604   -45.96
       1000   0.38902  -112.95    4.1896    93.97   0.11491    51.65   0.53468   -46.64
       1050   0.37592  -116.60    4.0287    91.93   0.11742    51.78   0.52341   -47.30
       1100   0.36401  -120.15    3.8833    89.97   0.12004    51.87   0.51378   -47.98
       1150   0.35348  -123.67    3.7472    88.09   0.12269    51.91   0.50533   -48.59
       1200   0.34296  -127.04    3.6207    86.27   0.12522    52.16   0.49714   -49.29
       1250   0.33415  -130.32    3.5013    84.51   0.12789    52.35   0.49004   -49.92
       1300   0.32575  -133.43    3.3923    82.84   0.13044    52.61   0.48354   -50.53
       1350   0.31875  -136.67    3.2883    81.18    0.1331    52.88   0.47697   -51.16
       1400   0.31204  -140.03    3.1916    79.57   0.13575    53.14   0.47092   -51.76
       1450   0.30607  -143.10    3.0998    78.01   0.13852    53.44   0.46569   -52.35
       1500   0.30066  -146.33    3.0121    76.46   0.14133    53.69   0.46071   -53.07
       1550   0.29521  -149.19    2.9323    74.97   0.14422    53.96   0.45655   -53.71
       1600   0.29106  -152.13     2.856    73.57   0.14709    54.28   0.45277   -54.36
       1650   0.28724  -155.05    2.7841    72.15   0.15011    54.57   0.44899   -55.00
       1700   0.28423  -157.92    2.7159    70.76   0.15319    54.94   0.44516   -55.59
       1750   0.28146  -160.92    2.6517    69.39    0.1562    55.17   0.44191   -56.28
       1800   0.27962  -163.84    2.5908    68.03   0.15936    55.43   0.43829   -57.01
       1850   0.27716  -166.40    2.5325    66.69   0.16267    55.68   0.43666   -57.69
       1900   0.27484  -169.12    2.4755    65.40   0.16598    55.89   0.43435   -58.57
       1950   0.27294  -171.80    2.4224    64.16    0.1693    56.13   0.43178   -59.22
       2000   0.27277  -174.33    2.3714    62.92    0.1727    56.37   0.43003   -59.92
       2050   0.27195  -176.83    2.3223    61.75   0.17601    56.60   0.42703   -60.64
       2100   0.27307  -179.36    2.2771    60.57   0.17964    56.86   0.42494   -61.36
       2150   0.27288   177.98     2.236    59.41   0.18348    57.05   0.42392   -62.22
       2200   0.27234   175.52    2.1973    58.23   0.18739    57.18   0.42161   -63.04
       2250   0.27111   173.28    2.1585    57.03   0.19116    57.27   0.42221   -63.82
       2300   0.27201   170.86    2.1183    55.89   0.19504    57.39   0.42046   -64.69
       2350   0.27432   168.57    2.0803    54.80   0.19859    57.50   0.41892   -65.47
       2400   0.27499   166.46    2.0456    53.72   0.20259    57.63   0.41823   -66.34
       2450    0.2762   164.21    2.0121    52.61   0.20652    57.69   0.41625   -67.24
       2500   0.27669   162.02    1.9799    51.53    0.2106    57.81   0.41637   -68.10
       2600   0.28011   158.11    1.9194    49.47   0.21913    57.91   0.41482   -70.09
       2700   0.28697   154.13    1.8637    47.49   0.22798    58.03   0.41264   -71.77
       2800   0.28935   150.07    1.8121    45.44   0.23717    57.98   0.41261   -73.67
       2900   0.29447   146.21    1.7651    43.48   0.24654    57.89   0.41152   -75.61
       3000   0.30109   142.62    1.7212    41.57   0.25633    57.75   0.41014   -77.43
       3100   0.30417   139.25    1.6788    39.64   0.26642    57.46   0.41069   -79.48
       3200   0.30862   135.99    1.6383    37.82   0.27666    57.11   0.41156   -81.52
       3300   0.31624   132.96    1.6009    35.99   0.28695    56.81   0.41137   -83.55
       3400   0.32156   129.99    1.5653    34.25   0.29731    56.31     0.412   -85.84
       3500   0.32614   126.98    1.5319    32.50   0.30804    55.74   0.41281   -88.18
       3600   0.33512   124.31    1.5011    30.85   0.31893    55.30   0.41266   -90.10
       3700   0.34091   121.52    1.4712    29.15   0.33012    54.68   0.41257   -92.41
       3800   0.34647   118.70    1.4426    27.47   0.34132    53.93   0.41364   -95.03
       3900   0.35543   116.18    1.4161    25.91    0.3528    53.26   0.41421   -97.13
       4000   0.36123   113.77    1.3902    24.35   0.36426    52.53   0.41464   -99.29
       4100    0.3666   111.24    1.3652    22.72   0.37576    51.64   0.41542  -101.95
       4200     0.376   108.86     1.342    21.20   0.38742    50.79   0.41641  -104.39
       4300   0.38319   106.68    1.3197    19.73   0.39931    49.92   0.41708  -106.68
       4400   0.38704   104.19     1.296    18.27    0.4106    48.91   0.41761  -109.24
       4500    0.3974   102.07    1.2768    16.80   0.42265    47.96   0.41951  -111.74
       4600   0.40427   100.08    1.2566    15.42   0.43426    46.96   0.42034  -114.12
       4700   0.40716    97.97     1.236    14.05   0.44538    45.90   0.42072  -116.71
       4800   0.41703    95.93    1.2184    12.77    0.4574    44.85   0.42175  -119.24
       4900   0.42508    93.95    1.1995    11.42   0.46896    43.76   0.42355  -121.83
       5000   0.42754    92.12    1.1818    10.13    0.4798    42.63    0.4248  -124.55
       5200   0.44422    88.47    1.1502     7.71   0.50324    40.31   0.42606  -129.31
       5400   0.45439    84.83    1.1178     5.28   0.52428    37.89   0.42961  -134.94
       5600   0.46528    81.35    1.0892     3.05   0.54499    35.43   0.43158  -140.10
       5800   0.48191    78.22    1.0635     0.79   0.56529    32.84   0.43549  -145.23
       6000   0.48927    75.06    1.0361    -1.20   0.58268    30.38   0.43655  -150.85

