! Filename:  P:\Prog\Test\Noise\ATS_data\Testdata_Net\03 Spar\BFU550A_APG2013_35_C05_03p3V_015mA_SP_CM01_D.s2p
! Date/Time: Tue 16/Apr/2013 15:10:17
! BFU550A_APG2013_35_C05_03p3V_1to35mA_SP_CM01_Bias6_R.s2p
! MDIF S-parameter v. bias file
! BFU530A_APG2013_33_A09_08p0V_015mA_SP_CM01
! Date/time Mon Apr 15 14:22:32 2013
! VAR V_out= 3.3000
! VAR I_out= 15.0050
! VAR V_in= 0.8437
! VAR I_in= 0.1661
! Device data file deembeded for feedlines and parallel
! Original file: \03 Spar\BFU550A_APG2013_35_C05_03p3V_015mA_SP_CM01_R.s2p
! Feed-files: PR017V01_150413_Feed1.s2p, PR017V01_150413_Feed2.s2p
! Parallel-file: PR017V01_150413_Par.s2p
# MHz S MA R 50
!  Freq-MHz   S11-mag  S11-arg   S21-mag  S21-arg   S12-mag  S12-arg   S22-mag  S22-arg
         40   0.58278   -20.19    32.185   163.78 0.0084111    82.18   0.95497   -11.31
         50   0.57168   -25.17    31.393   160.33  0.010384    80.21   0.93916   -14.08
         60   0.55897   -29.83    30.797   156.50  0.012275    78.26   0.91895   -16.59
         70   0.54612   -34.40    30.074   153.15  0.014016    76.68    0.8983   -18.90
         80   0.53254   -38.77    29.246   149.85  0.015724    75.34   0.87669   -21.10
         90   0.51815   -42.95     28.38   146.79  0.017288    73.96   0.85342   -23.06
        100   0.50401   -46.97    27.587   143.88  0.018796    73.00   0.83065   -24.87
        120   0.47501   -54.60    25.918   138.55  0.021585    71.09   0.78554   -28.07
        140   0.44815   -61.47     24.27   133.86  0.024098    69.73     0.742   -30.63
        160   0.42273   -67.81    22.654   129.78  0.026489    68.69    0.7023   -32.72
        180   0.39943   -73.75    21.207   126.07  0.028687    67.94   0.66481   -34.42
        200   0.37891   -79.09    19.874   122.84  0.030756    67.56   0.63193   -35.72
        220   0.36083   -83.99    18.716   119.88   0.03272    67.40   0.60304   -36.80
        240   0.34367   -88.67     17.61   117.26  0.034639    67.28    0.5764   -37.59
        260   0.32882   -93.04    16.619   114.86  0.036547    67.28   0.55313   -38.27
        280   0.31607   -97.14     15.72   112.76  0.038396    67.40   0.53218   -38.76
        300   0.30432  -100.93    14.889   110.81  0.040241    67.49   0.51361   -39.09
        320   0.29414  -104.53     14.14   109.06  0.042061    67.64   0.49663   -39.42
        340   0.28479  -107.93    13.456   107.38  0.043903    67.83   0.48146   -39.55
        360   0.27688  -111.21    12.838   105.88  0.045766    68.04   0.46811   -39.73
        380   0.26928  -114.31    12.257   104.46  0.047556    68.21   0.45536   -39.83
        400   0.26252  -117.18    11.731   103.13  0.049395    68.47   0.44477   -39.82
        420   0.25715  -120.07    11.249   101.85  0.051266    68.66   0.43459   -39.90
        433    0.2532  -121.99    10.955   101.08  0.052452    68.80   0.42871   -39.86
        440   0.25157  -122.94      10.8   100.67  0.053102    68.85   0.42553   -39.87
        460    0.2469  -125.34    10.382    99.58  0.054966    69.07   0.41746   -39.94
        480   0.24318  -127.88    9.9958    98.51  0.056781    69.23   0.40933   -39.93
        500   0.23874  -130.32    9.6376    97.51  0.058622    69.38    0.4027   -39.90
        550   0.23003  -136.24    8.8556    95.06  0.063176    69.80   0.38581   -39.78
        600   0.22411  -141.19    8.1817    92.96  0.067964    70.12   0.37442   -39.79
        650    0.2191  -146.11    7.5991    91.01  0.072696    70.38   0.36469   -39.91
        700   0.21507  -150.40    7.0956    89.18  0.077457    70.59   0.35629   -39.99
        750   0.21216  -154.58    6.6524    87.49  0.082213    70.75     0.349   -40.06
        800    0.2099  -158.32     6.266    85.89   0.08701    70.82   0.34337   -40.37
        850   0.20854  -162.23    5.9209    84.33  0.091803    70.88   0.33716   -40.64
        900   0.20701  -165.79    5.6115    82.87  0.096655    70.90   0.33277   -40.94
        950   0.20607  -168.93    5.3353    81.45   0.10148    70.88   0.32915   -41.41
       1000   0.20516  -172.00    5.0853    80.05   0.10636    70.83   0.32576   -41.73
       1050   0.20522  -174.94    4.8549    78.74   0.11123    70.75    0.3228   -42.17
       1100   0.20561  -177.80    4.6487    77.46   0.11611    70.61   0.32021   -42.71
       1150   0.20619   179.48     4.459    76.20   0.12101    70.46   0.31728   -43.20
       1200   0.20621   176.85    4.2854    74.98   0.12593    70.29   0.31557   -43.89
       1250    0.2071   174.33     4.125    73.77   0.13085    70.10    0.3136   -44.54
       1300   0.20701   171.99    3.9781    72.61    0.1358    69.89   0.31244   -45.14
       1350   0.20793   169.79    3.8416    71.46    0.1407    69.65   0.31091   -45.88
       1400   0.20996   167.39    3.7158    70.32   0.14564    69.42   0.30892   -46.52
       1450   0.21063   165.27    3.5981    69.20   0.15059    69.16   0.30769   -47.24
       1500   0.21258   163.07    3.4858    68.09   0.15553    68.87    0.3061   -48.13
       1550   0.21318   161.10    3.3827    67.00   0.16052    68.57   0.30527   -48.91
       1600   0.21411   159.19    3.2859    65.97   0.16547    68.30   0.30481   -49.73
       1650   0.21577   157.34    3.1955    64.91   0.17049    67.98   0.30406   -50.55
       1700    0.2174   155.52    3.1104    63.87   0.17542    67.66   0.30341   -51.35
       1750   0.21937   153.68    3.0304    62.84   0.18032    67.33   0.30214   -52.24
       1800   0.22237   151.93    2.9559    61.81   0.18529    67.00   0.30063   -53.16
       1850   0.22303   150.32    2.8841    60.78   0.19034    66.66   0.30093   -54.08
       1900   0.22452   148.56    2.8148    59.76   0.19531    66.26    0.3006   -55.21
       1950   0.22594   146.77    2.7503    58.79   0.20019    65.91   0.29989   -56.08
       2000   0.22864   145.64    2.6883    57.84   0.20507    65.55   0.29971   -57.02
       2050   0.23089   144.13    2.6293    56.90   0.20988    65.21   0.29831   -57.93
       2100   0.23378   142.82    2.5744    56.00   0.21492    64.90   0.29732   -58.89
       2150   0.23701   141.16    2.5244    55.08   0.22011    64.54   0.29727   -60.01
       2200     0.239   139.61    2.4783    54.13    0.2253    64.11   0.29627   -61.05
       2250   0.23885   138.12    2.4311    53.14   0.23034    63.68   0.29754   -62.06
       2300   0.24175   136.74    2.3841    52.21   0.23523    63.25   0.29697   -63.13
       2350   0.24543   135.58    2.3396    51.32   0.24001    62.86   0.29575   -64.10
       2400   0.24773   134.46    2.2986    50.45   0.24491    62.47   0.29586   -65.18
       2450    0.2508   133.01    2.2587    49.54    0.2498    62.06   0.29448   -66.32
       2500   0.25203   131.60    2.2207    48.66   0.25493    61.68   0.29512   -67.41
       2600   0.25694   129.36    2.1497    46.92   0.26471    60.84   0.29488   -69.83
       2700   0.26512   127.32    2.0853    45.27   0.27477    60.08   0.29317   -71.90
       2800   0.26968   124.52    2.0249    43.54   0.28505    59.21   0.29366   -74.20
       2900   0.27587   122.06    1.9709    41.87   0.29511    58.36   0.29301   -76.48
       3000   0.28354   119.90    1.9205    40.22   0.30554    57.50    0.2917   -78.50
       3100   0.28646   117.62    1.8715    38.51   0.31576    56.52   0.29274   -80.91
       3200    0.2913   115.54     1.825    36.90   0.32587    55.57   0.29394   -83.29
       3300   0.29856   113.77    1.7831    35.33   0.33602    54.65   0.29334   -85.40
       3400    0.3034   111.80    1.7422    33.78   0.34575    53.66   0.29399   -88.09
       3500   0.30782   109.74    1.7043    32.21   0.35545    52.65   0.29532   -90.84
       3600   0.31666   108.11    1.6707    30.74   0.36551    51.79   0.29481   -92.90
       3700   0.32163   106.22    1.6372    29.20   0.37555    50.80   0.29454   -95.49
       3800    0.3269   104.09    1.6055    27.69   0.38539    49.75   0.29597   -98.49
       3900    0.3353   102.46    1.5758    26.24   0.39551    48.78   0.29612  -100.67
       4000   0.33998   100.89    1.5479    24.80   0.40532    47.79   0.29644  -103.02
       4100   0.34496    98.95    1.5202    23.30   0.41477    46.71   0.29767  -106.01
       4200   0.35329    97.37     1.495    21.88    0.4247    45.66   0.29851  -108.54
       4300   0.35976    95.82     1.471    20.49   0.43456    44.63   0.29859  -110.92
       4400   0.36304    93.97    1.4449    19.10   0.44365    43.54   0.29987  -113.78
       4500   0.37248    92.48    1.4246    17.73   0.45356    42.47   0.30178  -116.32
       4600   0.37851    91.09    1.4031    16.39   0.46295    41.41   0.30267  -118.77
       4700   0.38083    89.48    1.3807    15.06   0.47166    40.32   0.30353  -121.59
       4800   0.39022    88.00    1.3616    13.80   0.48135    39.24   0.30486  -124.20
       4900   0.39726    86.61    1.3421    12.47   0.49058    38.13   0.30649  -126.79
       5000   0.39939    85.13    1.3231    11.21   0.49899    37.03   0.30801  -129.72
       5200     0.415    82.50    1.2896     8.78   0.51745    34.80   0.31074  -134.41
       5400   0.42434    79.70    1.2557     6.31   0.53348    32.52   0.31498  -140.21
       5600   0.43497    77.04    1.2243     4.00   0.54964    30.27   0.31865  -145.48
       5800   0.45123    74.64    1.1967     1.65   0.56542    27.93   0.32461  -150.45
       6000   0.45929    72.15    1.1675    -0.48   0.57873    25.71   0.32778  -156.25

