! Filename:  P:\Prog\Test\Noise\ATS_data\Testdata_Net\03 Spar\BFU550A_APG2013_35_C05_03p3V_001mA_SP_CM01_D.s2p
! Date/Time: Tue 16/Apr/2013 15:10:31
! BFU550A_APG2013_35_C05_03p3V_1to35mA_SP_CM01_Bias1_R.s2p
! MDIF S-parameter v. bias file
! BFU530A_APG2013_33_A09_08p0V_015mA_SP_CM01
! Date/time Mon Apr 15 14:22:32 2013
! bias mode 1
! bias variable = I_out
! VAR bias_var= 1
! VAR V_out= 3.3000
! VAR I_out= 1.0000
! VAR V_in= 0.7837
! VAR I_in= 0.0105
! Device data file deembeded for feedlines and parallel
! Original file: \03 Spar\BFU550A_APG2013_35_C05_03p3V_001mA_SP_CM01_R.s2p
! Feed-files: PR017V01_150413_Feed1.s2p, PR017V01_150413_Feed2.s2p
! Parallel-file: PR017V01_150413_Par.s2p
# MHz S MA R 50
!  Freq-MHz   S11-mag  S11-arg   S21-mag  S21-arg   S12-mag  S12-arg   S22-mag  S22-arg
         40    0.9625    -4.16    3.4969   176.36  0.010486    87.16   0.99816    -2.27
         50   0.96089    -5.23     3.468   175.87  0.013156    86.65   0.99801    -2.99
         60   0.96045    -6.19    3.4855   174.26  0.015808    85.79   0.99711    -3.51
         70   0.95986    -7.26    3.4929   173.41  0.018412    85.08   0.99617    -4.08
         80   0.95903    -8.27    3.4829   172.42  0.021012    84.52    0.9954    -4.66
         90   0.95809    -9.28    3.4555   171.45  0.023566    83.69   0.99442    -5.25
        100   0.95683   -10.33    3.4642   170.54  0.026143    83.09   0.99346    -5.82
        120   0.95381   -12.42    3.4795   168.78  0.031262    81.76   0.99126    -6.97
        140   0.95076   -14.44    3.4663   166.97  0.036269    80.48   0.98806    -8.09
        160   0.94745   -16.48     3.445   165.21  0.041387    79.04   0.98543    -9.20
        180   0.94322   -18.48    3.4138   163.34  0.046319    77.72   0.98134   -10.35
        200   0.93918   -20.49    3.3935   161.66  0.051175    76.43   0.97751   -11.46
        220   0.93462   -22.52    3.4052   159.89  0.055834    75.37   0.97262   -12.51
        240   0.92903   -24.55    3.3986   158.11  0.060518    74.10   0.96857   -13.57
        260   0.92384   -26.49    3.3618   156.37  0.065113    72.83   0.96401   -14.63
        280   0.91894   -28.38    3.3245   154.72  0.069618    71.65   0.95931   -15.67
        300    0.9131   -30.34     3.307   153.04  0.073929    70.46   0.95337   -16.70
        320   0.90674   -32.41     3.311   151.43  0.078224    69.29   0.94759   -17.73
        340   0.90021   -34.29    3.2894   149.79  0.082367    68.13   0.94174   -18.70
        360    0.8938   -36.20     3.264   148.19  0.086527    67.04   0.93685   -19.63
        380   0.88737   -38.00    3.2201   146.53    0.0904    65.88   0.92999   -20.62
        400   0.88052   -39.91    3.2023   145.08  0.094242    64.88   0.92425   -21.47
        420   0.87319   -41.88    3.1939   143.45  0.098063    63.78   0.91844   -22.41
        433   0.86857   -43.03    3.1718   142.45   0.10046    63.12   0.91481   -22.94
        440   0.86628   -43.72    3.1662   141.93   0.10173    62.72   0.91259   -23.29
        460   0.85869   -45.57     3.144   140.46    0.1053    61.68    0.9069   -24.21
        480   0.85225   -47.32    3.1062   138.94   0.10864    60.63   0.89982   -25.09
        500   0.84379   -49.20    3.0932   137.46   0.11194    59.64   0.89351   -25.92
        550    0.8246   -53.75    3.0327   133.82   0.11943    57.22   0.87584   -28.00
        600    0.8054   -58.11    2.9772   130.33   0.12649    54.99   0.86014   -29.96
        650   0.78664   -62.21    2.8873   127.00   0.13319    52.89   0.84606   -31.74
        700   0.76713   -66.49    2.8382   123.71   0.13861    50.80   0.82934   -33.63
        750    0.7492   -70.43    2.7565   120.58   0.14403    48.96   0.81461   -35.15
        800   0.73007   -74.51    2.7034   117.53   0.14863    47.16       0.8   -36.79
        850   0.71145   -78.49    2.6392   114.48    0.1528    45.44   0.78525   -38.30
        900   0.69332   -82.28    2.5773   111.63   0.15708    43.86   0.77472   -39.63
        950   0.67689   -86.07    2.5213   108.86   0.15931    42.35   0.75798   -41.25
       1000   0.66118   -89.66    2.4591   106.18   0.16234    40.98   0.74697   -42.48
       1050   0.64538   -93.24    2.3967   103.54   0.16433    39.78   0.73329   -43.70
       1100   0.63038   -96.84    2.3418   101.05   0.16621    38.60    0.7218   -44.95
       1150   0.61625  -100.36    2.2873    98.60   0.16876    37.37   0.71454   -45.99
       1200   0.60174  -103.77    2.2386    96.18   0.16925    36.40   0.70205   -47.31
       1250   0.58901  -107.11    2.1868    93.86   0.17084    35.45   0.69448   -48.32
       1300   0.57659  -110.40    2.1432    91.62   0.17087    34.63   0.68439   -49.52
       1350    0.5657  -113.67    2.0942    89.45   0.17099    34.00   0.67415   -50.55
       1400   0.55447  -117.01     2.051    87.32   0.17116    33.27    0.6665   -51.61
       1450    0.5446  -120.13    2.0052    85.24   0.17121    32.76   0.65906   -52.53
       1500   0.53458  -123.37    1.9638    83.18   0.17104    32.24   0.65191   -53.58
       1550   0.52543  -126.37    1.9257    81.21   0.17074    31.83   0.64578   -54.56
       1600   0.51757  -129.43    1.8887    79.38   0.16951    31.71    0.6379   -55.62
       1650   0.50956  -132.47    1.8528    77.52   0.16881    31.60   0.63148   -56.57
       1700   0.50203  -135.43    1.8168    75.65   0.16753    31.91   0.62256   -57.46
       1750   0.49565  -138.48    1.7818    73.87   0.16719    31.68   0.61965   -58.31
       1800   0.49002  -141.48    1.7488    72.06   0.16617    31.83   0.61388   -59.29
       1850   0.48423  -144.21     1.717    70.36   0.16564    31.90   0.61175   -60.17
       1900   0.47956  -147.09     1.686    68.73   0.16451    32.31   0.60643   -61.25
       1950   0.47391  -149.91     1.656    67.12   0.16389    32.71   0.60264   -62.05
       2000   0.47075  -152.77    1.6276    65.54   0.16294    33.38    0.5982   -62.94
       2050   0.46651  -155.52     1.599    64.03   0.16204    34.04   0.59381   -63.84
       2100   0.46421  -158.24    1.5728    62.45   0.16147    34.85   0.59034   -64.69
       2150   0.46042  -161.04    1.5491    60.97    0.1611    35.56   0.58882   -65.71
       2200   0.45792  -163.60    1.5264    59.49   0.16089    36.47   0.58521   -66.70
       2250   0.45506  -166.16    1.5036    58.02   0.16083    37.28   0.58504   -67.58
       2300   0.45324  -168.93    1.4788    56.67   0.16113    38.65   0.58024   -68.57
       2350   0.45276  -171.55    1.4549    55.29   0.16055    39.35   0.58078   -69.53
       2400     0.452  -174.01    1.4341    53.97   0.16131    40.73   0.57798   -70.51
       2450   0.45047  -176.61    1.4135    52.60    0.1621    41.84   0.57575   -71.50
       2500   0.44936  -178.95    1.3923    51.25   0.16263    43.04   0.57639   -72.52
       2600   0.44914   176.24    1.3546    48.77   0.16649    45.89   0.57193   -74.66
       2700    0.4518   171.45    1.3184    46.41    0.1714    48.55   0.56886   -76.57
       2800   0.45176   166.78    1.2844    44.03   0.17727    50.96   0.56862   -78.71
       2900   0.45399   162.28    1.2523    41.75   0.18458    53.29   0.56715   -80.89
       3000   0.45782   157.92    1.2218    39.57   0.19369    55.36   0.56526   -83.02
       3100   0.45972   153.68    1.1939    37.46   0.20427    57.05   0.56463   -85.30
       3200   0.46285   149.58    1.1658    35.50   0.21596    58.35   0.56456   -87.51
       3300   0.46894   145.71    1.1381    33.50    0.2279    59.73   0.56528   -89.99
       3400   0.47251   141.87    1.1136    31.62   0.24128    60.36   0.56509   -92.43
       3500   0.47517   138.04    1.0902    29.83     0.256    60.57    0.5638   -94.84
       3600   0.48321   134.48     1.067    28.19   0.27043    60.93   0.56437   -97.14
       3700   0.48789   130.93     1.045    26.53   0.28597    60.83   0.56361   -99.66
       3800   0.49152   127.33    1.0247    24.91   0.30155    60.45   0.56437  -102.37
       3900   0.49969   123.98    1.0045    23.46   0.31776    60.02   0.56409  -104.82
       4000   0.50391   120.77   0.98605    22.07   0.33411    59.40   0.56378  -107.21
       4100   0.50764   117.51    0.9676    20.57   0.35068    58.46   0.56303  -110.02
       4200   0.51559   114.47   0.95041    19.28   0.36735    57.59   0.56366  -112.77
       4300   0.52166   111.56   0.93453    18.06   0.38419    56.67   0.56422  -115.45
       4400   0.52298   108.38   0.91848    16.85    0.4001    55.30   0.56166  -117.99
       4500   0.53148   105.61   0.90538    15.70   0.41675    54.16   0.56303  -120.75
       4600   0.53681   102.98   0.89093    14.65   0.43294    52.86   0.56169  -123.38
       4700   0.53694   100.21   0.87712    13.61   0.44822    51.44   0.56016  -126.10
       4800   0.54474    97.63    0.8669    12.71   0.46425    50.04   0.55932  -128.83
       4900   0.55021    95.11   0.85519    11.77    0.4801    48.68   0.56055  -131.71
       5000   0.54951    92.69   0.84405    10.81   0.49423    47.17   0.55988  -134.50
       5200   0.56088    88.07   0.82788     9.23   0.52372    44.05   0.55468  -139.60
       5400   0.56469    83.58   0.81046     7.62    0.5502    40.92   0.55495  -145.50
       5600   0.56888    79.39    0.7974     6.13   0.57425    37.75   0.55151  -150.73
       5800   0.57833    75.64   0.78787     4.58    0.5971    34.46   0.54879  -155.99
       6000   0.57861    72.01   0.77703     3.26   0.61601    31.43   0.54597  -161.57

