! Filename:  P:\Prog\Test\Noise\ATS_data\Testdata_Net\03 Spar\BFU550A_APG2013_35_C05_05p0V_003mA_SP_CM01_D.s2p
! Date/Time: Tue 16/Apr/2013 15:10:20
! BFU550A_APG2013_35_C05_05p0V_1to35mA_SP_CM01_Bias3_R.s2p
! MDIF S-parameter v. bias file
! BFU550A_APG2013_35_C05_05p0V_1to35mA_SP_CM01
! Date/time Mon Apr 15 15:41:37 2013
! VAR V_out= 5.0010
! VAR I_out= 3.0000
! VAR V_in= 0.8080
! VAR I_in= 0.0314
! Device data file deembeded for feedlines and parallel
! Original file: \03 Spar\BFU550A_APG2013_35_C05_05p0V_003mA_SP_CM01_R.s2p
! Feed-files: PR017V01_150413_Feed1.s2p, PR017V01_150413_Feed2.s2p
! Parallel-file: PR017V01_150413_Par.s2p
# MHz S MA R 50
!  Freq-MHz   S11-mag  S11-arg   S21-mag  S21-arg   S12-mag  S12-arg   S22-mag  S22-arg
         40   0.89173    -6.93    9.6799   173.90 0.0097088    85.79    0.9935    -4.18
         50   0.88909    -8.71    9.5939   172.32  0.012167    84.78   0.99204    -5.33
         60   0.88616   -10.30    9.5593   170.50   0.01461    83.83   0.98869    -6.27
         70     0.884   -12.03    9.5575   169.29  0.016986    82.92   0.98574    -7.27
         80   0.88035   -13.76    9.5255   167.62  0.019346    81.97   0.98275    -8.30
         90   0.87659   -15.37    9.4115   166.04  0.021632    80.90   0.97859    -9.32
        100   0.87251   -17.05    9.3878   164.72   0.02392    80.04   0.97396   -10.30
        120    0.8626   -20.48     9.362   161.81  0.028403    78.24   0.96522   -12.22
        140   0.85252   -23.68    9.2262   159.13  0.032696    76.48   0.95428   -14.08
        160   0.84093   -26.89    9.0698   156.48  0.037027    74.66    0.9437   -15.88
        180   0.82877   -29.98    8.9101   153.83  0.041028    73.01   0.92976   -17.67
        200   0.81606   -33.06    8.7635   151.34  0.044863    71.44   0.91672   -19.34
        220   0.80222   -36.18    8.6878   148.83   0.04848    70.16   0.90264   -20.89
        240   0.78697   -39.17    8.5413   146.36  0.052011    68.67   0.88919   -22.41
        260   0.77311   -41.99    8.3679   144.01  0.055383    67.36   0.87509   -23.87
        280   0.75988   -44.70    8.1891   141.87  0.058544    66.08   0.86088   -25.28
        300   0.74389   -47.55    8.0502   139.62   0.06151    64.95   0.84542   -26.55
        320   0.72854   -50.37    7.9272   137.52  0.064377    63.82   0.83113   -27.83
        340   0.71342   -52.97    7.7652   135.45  0.067083    62.77   0.81655   -29.00
        360   0.69937   -55.52    7.6044   133.52  0.069779    61.80   0.80336   -30.10
        380   0.68467   -57.94    7.4305   131.60  0.072122    60.85   0.78849   -31.18
        400   0.66966   -60.43    7.2933   129.74  0.074485    60.09   0.77539   -32.07
        420   0.65561   -62.85    7.1502   127.90  0.076815    59.27   0.76238   -33.05
        433   0.64647   -64.39    7.0529   126.80  0.078234    58.76   0.75443   -33.59
        440   0.64166   -65.26    7.0065   126.17  0.078948    58.49   0.74983   -33.92
        460   0.62815   -67.47     6.855   124.54  0.081006    57.79    0.7379   -34.83
        480   0.61556   -69.68    6.7066   122.92  0.082891    57.13   0.72498   -35.63
        500   0.60189   -71.92    6.5752   121.34  0.084777    56.52   0.71359   -36.39
        550   0.56955   -77.29    6.2579   117.49  0.088847    55.18   0.68381   -38.18
        600   0.54177   -82.17    5.9482   114.09  0.092814    54.18    0.6593   -39.69
        650    0.5166   -86.80    5.6459   110.96  0.096524    53.30    0.6374   -41.04
        700   0.49192   -91.33    5.3843   107.93  0.099711    52.66   0.61593   -42.29
        750   0.47098   -95.63    5.1276   105.20   0.10286    52.17   0.59697   -43.29
        800   0.45078   -99.85    4.9038   102.58   0.10585    51.82      0.58   -44.29
        850   0.43232  -103.96    4.6911   100.06    0.1087    51.52   0.56368   -45.21
        900   0.41535  -107.88     4.495    97.72   0.11156    51.32   0.55051   -46.04
        950   0.40065  -111.66    4.3155    95.48   0.11405    51.31   0.53663   -46.89
       1000   0.38718  -115.28    4.1463    93.34   0.11672    51.31   0.52524   -47.58
       1050   0.37474  -118.95    3.9863    91.31   0.11927    51.44   0.51393   -48.26
       1100   0.36332  -122.56    3.8418    89.36   0.12192    51.54   0.50435   -48.94
       1150   0.35338  -126.14    3.7061    87.49   0.12464    51.59    0.4959   -49.56
       1200   0.34329  -129.48    3.5807    85.67    0.1272    51.82   0.48772   -50.27
       1250   0.33479  -132.83    3.4617    83.91   0.12992    52.01   0.48066   -50.90
       1300    0.3271  -135.99    3.3534    82.24   0.13253    52.27   0.47419   -51.52
       1350   0.32039  -139.22    3.2502    80.59   0.13523    52.55   0.46764   -52.17
       1400   0.31447  -142.53    3.1543    78.98   0.13792    52.80   0.46159   -52.78
       1450    0.3087  -145.64    3.0633    77.42   0.14072    53.09   0.45636   -53.39
       1500   0.30388  -148.82    2.9764    75.88   0.14358    53.33   0.45144   -54.11
       1550   0.29899  -151.68    2.8973    74.40   0.14654    53.60   0.44731   -54.76
       1600   0.29502  -154.58    2.8218    72.99   0.14945    53.92   0.44355   -55.42
       1650   0.29155  -157.52     2.751    71.58   0.15251    54.21   0.43981   -56.08
       1700   0.28904  -160.33    2.6834    70.18   0.15567    54.56     0.436   -56.69
       1750   0.28646  -163.26    2.6192    68.81   0.15872    54.78   0.43278   -57.38
       1800   0.28502  -166.09    2.5594    67.46   0.16192    55.03   0.42916   -58.12
       1850   0.28278  -168.69    2.5019    66.12   0.16527    55.27   0.42753   -58.82
       1900   0.28105  -171.35    2.4456    64.83   0.16863    55.47   0.42525   -59.71
       1950   0.27902  -174.01    2.3929    63.59   0.17201    55.70   0.42271   -60.38
       2000   0.27978  -176.40    2.3425    62.35   0.17543    55.92   0.42095   -61.09
       2050   0.27873  -179.00     2.294    61.18   0.17882    56.15   0.41801   -61.82
       2100   0.28001   178.65    2.2494    60.00   0.18248    56.39   0.41589   -62.56
       2150   0.28003   175.99    2.2085    58.83   0.18637    56.57   0.41489   -63.44
       2200   0.27997   173.65    2.1707    57.66   0.19029    56.69   0.41262   -64.28
       2250   0.27903   171.39    2.1322    56.45   0.19412    56.77    0.4132   -65.07
       2300   0.27973   169.03    2.0924    55.33   0.19807    56.88   0.41149   -65.95
       2350   0.28242   166.89    2.0547    54.24   0.20162    56.97    0.4099   -66.74
       2400   0.28321   164.80    2.0203    53.16   0.20567    57.09   0.40921   -67.63
       2450   0.28457   162.55    1.9871    52.05   0.20961    57.14   0.40723   -68.54
       2500   0.28505   160.49    1.9556    50.97   0.21376    57.24   0.40743   -69.42
       2600   0.28878   156.56    1.8956    48.91   0.22236    57.33   0.40591   -71.44
       2700    0.2955   152.72     1.841    46.92   0.23128    57.41   0.40369   -73.17
       2800   0.29844   148.78      1.79    44.88   0.24054    57.35   0.40374   -75.10
       2900   0.30321   145.01    1.7436    42.93   0.24989    57.24   0.40268   -77.06
       3000   0.31015   141.51       1.7    41.02   0.25979    57.08   0.40132   -78.91
       3100     0.313   138.20    1.6585    39.09   0.26986    56.77    0.4018   -81.00
       3200   0.31791   135.01     1.618    37.26   0.28016    56.41   0.40273   -83.06
       3300   0.32589   132.08    1.5814    35.43   0.29045    56.09   0.40258   -85.12
       3400   0.33105   129.14    1.5465    33.69   0.30084    55.58   0.40321   -87.44
       3500   0.33511   126.19     1.513    31.96   0.31155    55.00   0.40405   -89.82
       3600   0.34459   123.57    1.4829    30.31   0.32244    54.54   0.40398   -91.77
       3700   0.35044   120.80    1.4534    28.63    0.3336    53.91   0.40393   -94.11
       3800   0.35549   118.02    1.4252    26.96   0.34475    53.15   0.40508   -96.76
       3900   0.36449   115.55    1.3985    25.40   0.35627    52.47   0.40563   -98.89
       4000   0.37032   113.14    1.3734    23.85   0.36764    51.73   0.40608  -101.08
       4100    0.3759   110.60    1.3486    22.21   0.37905    50.83   0.40692  -103.78
       4200   0.38487   108.28    1.3254    20.70   0.39072    49.97   0.40802  -106.23
       4300   0.39206   106.11    1.3037    19.24   0.40249    49.11   0.40869  -108.55
       4400   0.39579   103.71    1.2803    17.79   0.41368    48.08   0.40927  -111.15
       4500   0.40605   101.57    1.2613    16.34   0.42565    47.14   0.41126  -113.65
       4600   0.41316    99.61    1.2414    14.96   0.43717    46.13   0.41215  -116.05
       4700   0.41556    97.52    1.2209    13.60   0.44816    45.06    0.4126  -118.68
       4800    0.4254    95.49    1.2037    12.33    0.4601    44.01   0.41377  -121.23
       4900   0.43315    93.52    1.1854    10.97   0.47153    42.93   0.41562  -123.83
       5000   0.43565    91.66    1.1676     9.70   0.48224    41.80   0.41697  -126.57
       5200   0.45212    88.07    1.1367     7.32   0.50538    39.48    0.4184  -131.36
       5400   0.46181    84.45    1.1049     4.90    0.5261    37.07   0.42225  -137.00
       5600   0.47275    80.98    1.0761     2.69   0.54648    34.61   0.42444  -142.18
       5800   0.48897    77.91    1.0514     0.46   0.56643    32.03   0.42865  -147.31
       6000   0.49608    74.75    1.0247    -1.52   0.58344    29.58   0.43009  -152.94

