! Filename:  P:\Prog\Test\Noise\ATS_data\Testdata_Net\03 Spar\BFU550A_APG2013_35_C05_08p0V_005mA_SP_CM01_D.s2p
! Date/Time: Tue 16/Apr/2013 15:10:19
! BFU550A_APG2013_35_C05_08p0V_1to35mA_SP_CM01_Bias4_R.s2p
! MDIF S-parameter v. bias file
! BFU550A_APG2013_35_C05_08p0V_1to35mA_SP_CM01
! Date/time Mon Apr 15 16:50:27 2013
! VAR V_out= 8.0000
! VAR I_out= 4.9950
! VAR V_in= 0.8112
! VAR I_in= 0.0508
! Device data file deembeded for feedlines and parallel
! Original file: \03 Spar\BFU550A_APG2013_35_C05_08p0V_005mA_SP_CM01_R.s2p
! Feed-files: PR017V01_150413_Feed1.s2p, PR017V01_150413_Feed2.s2p
! Parallel-file: PR017V01_150413_Par.s2p
# MHz S MA R 50
!  Freq-MHz   S11-mag  S11-arg   S21-mag  S21-arg   S12-mag  S12-arg   S22-mag  S22-arg
         40   0.83579    -9.00    14.818   171.75 0.0091111    85.33   0.98823    -5.48
         50   0.83017   -11.31    14.654   169.77  0.011399    83.68   0.98423    -6.94
         60   0.82565   -13.41    14.555   167.54  0.013681    82.54   0.97939    -8.34
         70   0.82125   -15.67    14.499   165.89  0.015848    81.38   0.97344    -9.66
         80   0.81523   -17.87    14.396   163.84  0.017998    80.34   0.96745   -10.98
         90   0.80865   -19.93    14.191   161.92  0.020066    79.14   0.96002   -12.26
        100   0.80191   -22.06      14.1   160.22  0.022114    78.14   0.95213   -13.50
        120   0.78556   -26.36    13.918   156.61   0.02611    76.07    0.9366   -15.91
        140   0.76952   -30.35    13.595   153.31  0.029854    74.22   0.91783   -18.16
        160   0.75191   -34.27    13.243   150.11  0.033515    72.29   0.89977   -20.29
        180   0.73306   -38.05    12.896   147.00  0.036859    70.67   0.87807   -22.34
        200   0.71381   -41.73    12.555   144.07  0.040017    69.15   0.85755   -24.19
        220   0.69412   -45.35    12.295   141.18  0.042925    67.98    0.8372   -25.85
        240   0.67304   -48.78    11.953   138.42  0.045734    66.69    0.8173   -27.46
        260    0.6543   -52.01      11.6   135.83  0.048389    65.54   0.79734   -28.93
        280    0.6362   -55.13    11.254   133.48  0.050838    64.53   0.77784   -30.30
        300   0.61592   -58.28    10.943   131.08  0.053139    63.69   0.75846   -31.48
        320   0.59761   -61.28    10.643   128.88    0.0554    62.86   0.74024   -32.66
        340   0.57927   -64.06    10.324   126.76  0.057468    62.13    0.7223   -33.68
        360     0.563   -66.79    10.023   124.81  0.059523    61.51   0.70623   -34.64
        380   0.54598   -69.39    9.7194   122.89  0.061387    60.93   0.68922   -35.53
        400   0.53034   -71.92     9.447   121.07  0.063233    60.55   0.67437   -36.22
        420   0.51494   -74.45    9.1807   119.30  0.065069    60.07   0.65988   -37.00
        433   0.50534   -76.03    9.0133   118.24  0.066212    59.85   0.65114   -37.41
        440   0.50054   -76.89    8.9262   117.64   0.06681    59.68   0.64623   -37.66
        460   0.48679   -79.12    8.6687   116.11  0.068499    59.37   0.63341   -38.33
        480   0.47437   -81.42      8.43   114.59  0.070104    59.09   0.62031   -38.90
        500   0.46117   -83.61    8.2041   113.14  0.071682    58.86   0.60878   -39.42
        550   0.43066   -89.05    7.6916   109.61  0.075307    58.41   0.57962   -40.61
        600   0.40583   -93.81    7.2168   106.59  0.079086    58.25   0.55688   -41.57
        650    0.3836   -98.48    6.7841   103.81  0.082725    58.14   0.53699   -42.43
        700   0.36324  -102.93    6.4039   101.19   0.08615    58.15   0.51868   -43.15
        750   0.34586  -107.23    6.0539    98.82  0.089633    58.26   0.50253   -43.71
        800   0.33045  -111.38    5.7461    96.58  0.093156    58.40   0.48886   -44.32
        850   0.31603  -115.56    5.4624    94.42   0.09659    58.56   0.47552   -44.87
        900   0.30317  -119.50     5.206    92.43   0.10009    58.75    0.4648   -45.38
        950   0.29232  -123.29    4.9735    90.50   0.10352    59.01   0.45479   -45.94
       1000   0.28197  -126.87    4.7592    88.66   0.10706    59.24   0.44603   -46.35
       1050    0.2734  -130.61    4.5595    86.93   0.11058    59.51   0.43787   -46.79
       1100   0.26529  -134.30    4.3794    85.25   0.11421    59.71   0.43093   -47.30
       1150   0.25876  -137.84    4.2122    83.64   0.11782    59.88   0.42426   -47.74
       1200   0.25221  -141.27    4.0582    82.08   0.12149    60.10   0.41876   -48.30
       1250   0.24669  -144.67    3.9148    80.56    0.1252    60.28    0.4136   -48.82
       1300   0.24156  -147.77    3.7833    79.11   0.12892    60.44   0.40937   -49.31
       1350   0.23756  -150.99    3.6601    77.68   0.13269    60.60   0.40493   -49.89
       1400   0.23424  -154.42    3.5455    76.28   0.13647    60.74   0.40048   -50.41
       1450    0.2308  -157.52    3.4381    74.92   0.14032    60.87   0.39697   -50.96
       1500   0.22843  -160.77    3.3348    73.57    0.1442    60.94   0.39341   -51.65
       1550   0.22547  -163.52    3.2414    72.27   0.14812    61.01   0.39066   -52.25
       1600   0.22355  -166.47     3.152    71.04   0.15206    61.10   0.38836   -52.88
       1650   0.22217  -169.30    3.0686    69.79   0.15611    61.15   0.38589   -53.51
       1700   0.22089  -172.04    2.9902    68.56   0.16018    61.22   0.38361   -54.11
       1750   0.22051  -174.98    2.9159    67.35   0.16414    61.20    0.3811   -54.80
       1800   0.22099  -177.73    2.8465    66.14   0.16825    61.21   0.37841   -55.53
       1850   0.21956   179.81    2.7801    64.96   0.17241    61.20   0.37755   -56.25
       1900   0.21931   177.23    2.7146    63.79   0.17659    61.12    0.3761   -57.15
       1950   0.21874   174.64    2.6543    62.68    0.1807    61.08   0.37439   -57.83
       2000   0.22049   172.42     2.596    61.58   0.18488    61.03    0.3733   -58.56
       2050    0.2209   169.99    2.5403    60.52   0.18894    60.99   0.37096   -59.29
       2100    0.2231   167.83    2.4894    59.48   0.19327    60.97   0.36932   -60.06
       2150   0.22458   165.25    2.4421    58.43   0.19782    60.89   0.36868   -60.95
       2200   0.22526   162.98    2.3993    57.37   0.20237    60.73   0.36694   -61.81
       2250   0.22495   160.95    2.3553    56.26   0.20676    60.56   0.36781   -62.62
       2300   0.22646   158.73      2.31    55.22   0.21114    60.40   0.36671   -63.53
       2350    0.2298   156.83    2.2674    54.22   0.21533    60.26   0.36505   -64.33
       2400   0.23182   155.06    2.2285    53.25   0.21977    60.11   0.36481   -65.23
       2450   0.23352   152.86    2.1912    52.24    0.2241    59.93   0.36292   -66.17
       2500    0.2347   150.96    2.1553    51.25   0.22872    59.80   0.36321   -67.07
       2600   0.23904   147.48    2.0876    49.35    0.2378    59.40   0.36221   -69.15
       2700   0.24677   144.20    2.0263    47.52   0.24719    59.07   0.36018   -70.89
       2800   0.25059   140.39     1.969    45.63    0.2568    58.60   0.36019   -72.85
       2900   0.25648   137.05    1.9172    43.81   0.26638    58.11   0.35914   -74.83
       3000   0.26363   133.93     1.869    42.02   0.27632    57.60   0.35772   -76.64
       3100   0.26672   130.89    1.8224    40.20   0.28628    56.96   0.35841   -78.74
       3200   0.27181   128.16    1.7777    38.47   0.29628    56.32   0.35933   -80.83
       3300   0.27985   125.61    1.7369    36.75    0.3063    55.71   0.35875   -82.80
       3400    0.2852   123.03     1.698    35.10   0.31616    54.97   0.35929   -85.16
       3500    0.2894   120.42    1.6619    33.44   0.32617    54.20   0.36026   -87.59
       3600   0.29895   118.13    1.6288    31.86   0.33645    53.56   0.35975   -89.47
       3700   0.30495   115.72    1.5967    30.24   0.34684    52.79   0.35947   -91.82
       3800   0.31022   113.21    1.5655    28.62   0.35722    51.90   0.36049   -94.51
       3900   0.31926   111.05     1.537    27.09   0.36777    51.11   0.36082   -96.57
       4000    0.3247   108.98    1.5092    25.58   0.37821    50.28   0.36105   -98.73
       4100   0.33008   106.74    1.4828    23.99   0.38853    49.34   0.36185  -101.44
       4200   0.33941   104.71     1.458    22.48   0.39912    48.42   0.36262  -103.85
       4300   0.34677   102.90    1.4347    21.04   0.40979    47.50   0.36291  -106.08
       4400   0.35047   100.65    1.4094    19.58   0.41984    46.49   0.36372  -108.71
       4500   0.36029    98.76    1.3891    18.14   0.43064    45.52   0.36538  -111.16
       4600   0.36734    97.11    1.3676    16.76   0.44107    44.52   0.36631  -113.50
       4700   0.37017    95.24    1.3459    15.38   0.45091    43.49   0.36677  -116.12
       4800   0.38033    93.43    1.3273    14.07    0.4617    42.46   0.36781  -118.61
       4900   0.38822    91.72    1.3076    12.71   0.47193    41.41   0.36933  -121.15
       5000   0.39074    90.10    1.2889    11.39   0.48161    40.32   0.37065  -123.90
       5200    0.4076    86.94    1.2554     8.91   0.50251    38.13    0.3726  -128.52
       5400    0.4183    83.71    1.2214     6.39   0.52117    35.85   0.37622  -134.13
       5600   0.42986    80.59    1.1902     4.05   0.53983    33.55   0.37895  -139.26
       5800   0.44722    77.88    1.1629     1.65   0.55817    31.14   0.38385  -144.28
       6000   0.45593    74.97    1.1336    -0.51   0.57391    28.85   0.38557  -149.92

