! Filename:  P:\Prog\Test\Noise\ATS_data\Testdata_Net\03 Spar\BFU550A_APG2013_35_C05_08p0V_035mA_SP_CM01_D.s2p
! Date/Time: Tue 16/Apr/2013 15:10:19
! BFU550A_APG2013_35_C05_08p0V_1to35mA_SP_CM01_Bias8_R.s2p
! MDIF S-parameter v. bias file
! BFU550A_APG2013_35_C05_08p0V_1to35mA_SP_CM01
! Date/time Mon Apr 15 16:50:27 2013
! VAR V_out= 8.0000
! VAR I_out= 35.0000
! VAR V_in= 0.7890
! VAR I_in= 0.3649
! Device data file deembeded for feedlines and parallel
! Original file: \03 Spar\BFU550A_APG2013_35_C05_08p0V_035mA_SP_CM01_R.s2p
! Feed-files: PR017V01_150413_Feed1.s2p, PR017V01_150413_Feed2.s2p
! Parallel-file: PR017V01_150413_Par.s2p
# MHz S MA R 50
!  Freq-MHz   S11-mag  S11-arg   S21-mag  S21-arg   S12-mag  S12-arg   S22-mag  S22-arg
         40    0.4128   -31.18    42.918   158.59 0.0072272    80.76   0.91751   -13.73
         50   0.39849   -38.60    41.365   153.85 0.0087775    78.49   0.89171   -17.03
         60   0.38633   -45.15    39.779   149.21  0.010286    76.86   0.86151   -19.74
         70    0.3755   -51.53    38.208   145.28  0.011669    75.57   0.83121   -22.11
         80   0.36308   -57.80    36.598   141.39  0.012974    74.39   0.80103   -24.22
         90   0.35004   -63.31    34.889   137.89   0.01418    73.47   0.77107   -25.96
        100   0.33989   -68.44    33.325   134.80  0.015346    72.81   0.74292   -27.49
        120   0.31866   -78.36    30.404   129.19  0.017504    71.81   0.69037   -29.89
        140   0.30189   -86.54     27.72   124.59  0.019522    71.41   0.64452   -31.47
        160   0.28666   -94.13    25.323   120.67  0.021523    71.21   0.60581   -32.50
        180   0.27492  -100.94    23.284   117.32  0.023433    71.19   0.57186   -33.19
        200    0.2645  -106.75    21.485   114.43  0.025274    71.41   0.54376   -33.53
        220   0.25672  -112.01    19.986   111.85  0.027096    71.77   0.52033   -33.74
        240   0.24941  -116.91    18.606   109.60  0.028921    72.09   0.49964   -33.71
        260   0.24339  -121.48    17.413   107.54  0.030756    72.42   0.48229   -33.70
        280   0.23892  -125.44    16.346   105.78  0.032588    72.77   0.46725   -33.57
        300   0.23483  -129.25    15.389   104.14  0.034438    73.06   0.45435   -33.33
        320   0.23143  -132.41    14.536   102.70  0.036295    73.35   0.44287   -33.19
        340   0.22831  -135.71     13.77   101.28   0.03813    73.64   0.43288   -32.91
        360    0.2263  -138.54    13.086   100.05  0.040011    73.91   0.42433   -32.75
        380   0.22388  -141.39    12.452    98.85  0.041846    74.12    0.4161   -32.55
        400   0.22165  -143.93    11.886    97.74  0.043733    74.38   0.40962   -32.29
        420   0.22084  -146.30    11.364    96.67  0.045641    74.58   0.40329   -32.16
        433   0.22023  -147.96    11.054    96.04  0.046845    74.69   0.39985   -32.01
        440   0.22005  -148.70    10.887    95.69  0.047512    74.71    0.3979   -31.96
        460   0.21831  -150.74    10.443    94.77  0.049404    74.90   0.39307   -31.90
        480    0.2182  -152.69    10.038    93.86  0.051287    75.00   0.38826   -31.76
        500   0.21719  -154.75    9.6613    93.03  0.053182    75.11   0.38448   -31.67
        550   0.21578  -159.50    8.8481    90.92  0.057825    75.40   0.37425   -31.40
        600   0.21482  -163.27    8.1542    89.11  0.062695    75.52   0.36824   -31.44
        650   0.21477  -166.96    7.5591    87.41  0.067477    75.59   0.36293   -31.59
        700   0.21435  -170.26    7.0459    85.80   0.07223    75.64   0.35845   -31.74
        750   0.21485  -173.42     6.597    84.30   0.07707    75.64   0.35454   -31.93
        800   0.21545  -176.18    6.2065    82.86  0.081859    75.58   0.35163   -32.37
        850   0.21685  -179.06    5.8589    81.45  0.086663    75.49   0.34794   -32.75
        900   0.21733   178.19    5.5482    80.13  0.091514    75.41   0.34563   -33.21
        950   0.21802   175.87     5.272    78.81  0.096369    75.26   0.34391   -33.83
       1000   0.21817   173.54    5.0214    77.53   0.10126    75.09    0.3422   -34.30
       1050   0.21978   171.34     4.792    76.32   0.10611    74.91   0.34084   -34.89
       1100   0.22129   169.10    4.5867    75.11   0.11101    74.67   0.33948   -35.58
       1150   0.22298   167.08    4.3975    73.94   0.11589    74.44   0.33776   -36.19
       1200   0.22399   165.01     4.225    72.79   0.12079    74.18   0.33695   -37.01
       1250   0.22535   163.08    4.0653    71.64   0.12572    73.93   0.33593   -37.76
       1300   0.22596   161.26    3.9195    70.53   0.13063    73.65   0.33566   -38.50
       1350   0.22765   159.51    3.7841    69.43   0.13552    73.34   0.33483   -39.35
       1400   0.23003   157.66    3.6591    68.35   0.14045    73.06   0.33354   -40.10
       1450    0.2314   155.99    3.5423    67.28   0.14539    72.75   0.33302   -40.91
       1500   0.23377   154.20    3.4312    66.20   0.15034    72.41   0.33196   -41.88
       1550   0.23437   152.60    3.3292    65.16   0.15529    72.06   0.33161   -42.75
       1600   0.23588   151.03    3.2331    64.15   0.16027    71.74    0.3316   -43.66
       1650   0.23793   149.51    3.1436    63.14   0.16526    71.38    0.3312   -44.56
       1700    0.2395   148.03    3.0596    62.13   0.17023    71.04   0.33107   -45.44
       1750   0.24183   146.57    2.9809    61.14   0.17512    70.67    0.3301   -46.39
       1800   0.24515   145.18    2.9075    60.13   0.18014    70.31   0.32897   -47.36
       1850    0.2458   143.70    2.8366    59.11   0.18517    69.94   0.32953   -48.35
       1900    0.2472   142.25    2.7675    58.12   0.19017    69.51   0.32938   -49.53
       1950   0.24921   140.77    2.7036    57.17   0.19509    69.12   0.32894   -50.45
       2000   0.25166   139.75    2.6421    56.24   0.19998    68.74   0.32902   -51.46
       2050   0.25389   138.47    2.5838    55.33   0.20485    68.39   0.32779   -52.40
       2100   0.25726   137.45    2.5298    54.44   0.20988    68.06   0.32697   -53.40
       2150   0.26026   135.96      2.48    53.55   0.21518    67.69    0.3271   -54.53
       2200   0.26219   134.59    2.4352    52.61   0.22043    67.22   0.32628   -55.60
       2250   0.26249   133.15    2.3885    51.62   0.22546    66.77   0.32782   -56.68
       2300   0.26532   132.00    2.3414    50.72   0.23045    66.31   0.32734   -57.80
       2350   0.26879   131.10    2.2978    49.84   0.23527    65.93   0.32623   -58.78
       2400   0.27085   130.01    2.2569    48.97   0.24027    65.52    0.3265   -59.89
       2450   0.27408   128.80    2.2179    48.07   0.24522    65.09   0.32518   -61.04
       2500   0.27566   127.50    2.1802    47.21   0.25045    64.68   0.32586   -62.16
       2600   0.28059   125.53    2.1099    45.50   0.26042    63.81   0.32569   -64.62
       2700   0.28859   123.69    2.0462    43.87   0.27074    63.03   0.32436   -66.73
       2800   0.29314   121.14    1.9869    42.15   0.28127    62.13   0.32493   -69.05
       2900   0.29929   118.91     1.933    40.50   0.29161    61.24   0.32439   -71.36
       3000   0.30681   116.90    1.8835    38.87   0.30232    60.34   0.32337   -73.45
       3100    0.3096   114.76    1.8351    37.19   0.31277    59.33   0.32451   -75.88
       3200   0.31438   112.77    1.7887    35.59   0.32319    58.35   0.32572   -78.30
       3300   0.32192   111.15    1.7472    34.03   0.33369    57.40   0.32512   -80.47
       3400   0.32685   109.30    1.7069    32.49   0.34375    56.36    0.3257   -83.16
       3500   0.33087   107.30    1.6695    30.95   0.35388    55.33   0.32702   -85.90
       3600   0.33959   105.80    1.6358    29.48   0.36433    54.43    0.3265   -88.00
       3700   0.34474   103.95    1.6025    27.97   0.37479    53.41   0.32616   -90.60
       3800   0.34957   101.96    1.5708    26.46   0.38505    52.31   0.32727   -93.60
       3900   0.35798   100.39    1.5418    25.02   0.39555    51.30   0.32761   -95.83
       4000   0.36264    98.81    1.5135    23.61   0.40579    50.27   0.32782   -98.20
       4100    0.3675    96.96    1.4862    22.12   0.41571    49.15   0.32869  -101.17
       4200   0.37563    95.40     1.461    20.72   0.42607    48.06   0.32939  -103.76
       4300   0.38213    93.94    1.4371    19.35   0.43641    46.98   0.32952  -106.15
       4400   0.38503    92.10    1.4114    17.97   0.44585    45.84   0.33046  -109.01
       4500    0.3944    90.63    1.3909    16.61   0.45631    44.73   0.33212  -111.63
       4600   0.40055    89.29    1.3694    15.28   0.46613    43.63   0.33302  -114.11
       4700    0.4022    87.67    1.3472    13.99    0.4753    42.49   0.33353  -116.91
       4800   0.41164    86.21    1.3284    12.75   0.48552    41.36   0.33456  -119.55
       4900    0.4185    84.80     1.309    11.43   0.49511    40.21   0.33593  -122.23
       5000   0.42027    83.40      1.29    10.19   0.50391    39.05   0.33712  -125.15
       5200   0.43546    80.71    1.2565     7.80   0.52334    36.73   0.33934  -129.94
       5400   0.44456    77.97    1.2222     5.41    0.5401    34.34   0.34282  -135.79
       5600   0.45476    75.26    1.1912     3.15   0.55707    31.98   0.34581  -141.14
       5800   0.47018    72.90    1.1642     0.82   0.57361    29.54   0.35104  -146.25
       6000   0.47757    70.41    1.1345    -1.24   0.58741    27.23     0.353  -152.09

