! Filename:  P:\Prog\Test\Noise\ATS_data\Testdata_Net\03 Spar\BFU550A_APG2013_35_C05_08p0V_010mA_SP_CM01_D.s2p
! Date/Time: Tue 16/Apr/2013 15:10:22
! BFU550A_APG2013_35_C05_08p0V_1to35mA_SP_CM01_Bias5_R.s2p
! MDIF S-parameter v. bias file
! BFU550A_APG2013_35_C05_08p0V_1to35mA_SP_CM01
! Date/time Mon Apr 15 16:50:27 2013
! VAR V_out= 8.0000
! VAR I_out= 9.9950
! VAR V_in= 0.8163
! VAR I_in= 0.1023
! Device data file deembeded for feedlines and parallel
! Original file: \03 Spar\BFU550A_APG2013_35_C05_08p0V_010mA_SP_CM01_R.s2p
! Feed-files: PR017V01_150413_Feed1.s2p, PR017V01_150413_Feed2.s2p
! Parallel-file: PR017V01_150413_Par.s2p
# MHz S MA R 50
!  Freq-MHz   S11-mag  S11-arg   S21-mag  S21-arg   S12-mag  S12-arg   S22-mag  S22-arg
         40   0.71233   -13.64    24.763   167.68 0.0085159    83.82   0.97425    -8.33
         50   0.70326   -17.08    24.355   164.85  0.010591    82.10   0.96451   -10.48
         60   0.69406   -20.21    24.014   161.85  0.012603    80.35   0.95341   -12.49
         70   0.68561   -23.49    23.717   159.38  0.014502    78.93   0.94069   -14.36
         80   0.67459   -26.69    23.347   156.62  0.016382    77.74   0.92724   -16.19
         90   0.66225   -29.66    22.854   154.05  0.018133    76.41   0.91195   -17.90
        100   0.65079   -32.64     22.47   151.69   0.01986    75.29   0.89655   -19.53
        120   0.62388   -38.54    21.662   146.96  0.023099    73.17   0.86518   -22.56
        140   0.59847   -43.84    20.719   142.77  0.026053    71.41   0.83182   -25.19
        160   0.57155   -48.91    19.745   138.85  0.028864    69.82   0.79988   -27.53
        180   0.54533   -53.69    18.836   135.23  0.031416    68.60   0.76699   -29.58
        200   0.51991   -58.11    17.946   131.90  0.033782    67.55   0.73693   -31.32
        220   0.49672   -62.31    17.173   128.80  0.035978    66.94   0.70925   -32.82
        240   0.47293   -66.23    16.364   125.96  0.038061    66.23   0.68262   -34.11
        260   0.45243   -69.98     15.62   123.35  0.040095    65.80   0.65817   -35.24
        280    0.4335   -73.43    14.915   121.02  0.042007    65.44   0.63546   -36.18
        300   0.41487   -76.81    14.258   118.78  0.043901    65.15   0.61469   -36.95
        320   0.39791   -79.94    13.647   116.79  0.045714    65.00    0.5953   -37.70
        340   0.38191   -82.86    13.069   114.86  0.047503    64.90   0.57722   -38.24
        360    0.3683   -85.78    12.543   113.13  0.049288    64.84   0.56135   -38.77
        380   0.35412   -88.54    12.034   111.46  0.050972    64.83   0.54563   -39.19
        400   0.34192   -91.14    11.574   109.92  0.052735    64.91   0.53222   -39.46
        420   0.33083   -93.75     11.14   108.43  0.054471    64.93   0.51934   -39.81
        433   0.32328   -95.44    10.878   107.53  0.055558    64.97   0.51174   -39.94
        440   0.32002   -96.34    10.738   107.04  0.056173    65.02   0.50769   -40.04
        460   0.31031   -98.58    10.353   105.78  0.057857    65.09   0.49699   -40.32
        480   0.30157  -101.03     9.998   104.52  0.059555    65.21   0.48638   -40.51
        500   0.29273  -103.31    9.6639   103.35  0.061243    65.28   0.47727   -40.68
        550   0.27279  -108.95    8.9312   100.50  0.065338    65.62   0.45477   -40.98
        600   0.25745  -113.91    8.2861    98.08  0.069673    65.95   0.43859   -41.25
        650   0.24412  -118.89    7.7225    95.84  0.073986    66.23   0.42458   -41.54
        700   0.23242  -123.49    7.2313    93.75  0.078284    66.53   0.41235   -41.74
        750   0.22311  -128.04    6.7949    91.84  0.082584    66.80   0.40165   -41.88
        800   0.21514  -132.33    6.4131    90.04   0.08696    67.00   0.39309   -42.19
        850   0.20804  -136.82     6.069    88.30  0.091314    67.16   0.38428   -42.46
        900    0.2014  -140.96    5.7601    86.68  0.095736    67.32    0.3776   -42.75
        950   0.19671  -144.80    5.4841    85.11   0.10014    67.43   0.37187   -43.15
       1000    0.1919  -148.44    5.2317    83.59   0.10463    67.52   0.36663   -43.42
       1050   0.18875  -152.27    4.9991    82.16   0.10911    67.59   0.36197   -43.78
       1100   0.18579  -155.99    4.7905    80.77   0.11361    67.59   0.35796   -44.23
       1150   0.18374  -159.50    4.5979    79.43   0.11813    67.55   0.35372   -44.62
       1200    0.1814  -162.98    4.4218    78.13    0.1227    67.53   0.35078   -45.20
       1250    0.1798  -166.21    4.2582    76.83   0.12727    67.47   0.34777   -45.72
       1300   0.17812  -169.21    4.1083    75.61   0.13185    67.38   0.34565   -46.22
       1350   0.17749  -172.24    3.9691    74.38   0.13642    67.25   0.34318   -46.85
       1400   0.17748  -175.43    3.8401    73.18   0.14101    67.14   0.34036   -47.39
       1450   0.17708  -178.33    3.7197    72.02   0.14565    66.99   0.33845   -47.99
       1500   0.17757   178.66    3.6044    70.84   0.15027    66.81   0.33621   -48.75
       1550   0.17695   176.09    3.4992    69.71   0.15492    66.62   0.33472   -49.41
       1600    0.1769   173.54    3.3998    68.64   0.15956    66.44   0.33369   -50.11
       1650   0.17767   171.08    3.3067    67.54   0.16427    66.23   0.33231   -50.82
       1700   0.17876   168.68    3.2197    66.47   0.16895    66.02   0.33124   -51.50
       1750   0.17993   166.15    3.1377    65.40   0.17356    65.77   0.32946   -52.27
       1800    0.1823   163.80    3.0607    64.34   0.17826    65.54   0.32754   -53.07
       1850   0.18227   161.70    2.9872    63.27   0.18303    65.28   0.32746   -53.88
       1900   0.18344   159.48    2.9153    62.23   0.18774    64.96   0.32676   -54.89
       1950   0.18462   157.19    2.8486    61.24   0.19237    64.70   0.32565   -55.64
       2000   0.18697   155.60    2.7846    60.25   0.19701    64.41   0.32516   -56.47
       2050   0.18886   153.60    2.7232    59.30   0.20154    64.16   0.32343   -57.28
       2100    0.1917   151.93    2.6672    58.37   0.20632    63.92   0.32212   -58.13
       2150   0.19473   149.71    2.6156    57.44    0.2113    63.63   0.32181   -59.13
       2200   0.19599   147.77    2.5683    56.47   0.21626    63.28   0.32051   -60.06
       2250   0.19628   145.91    2.5198    55.45   0.22105    62.92   0.32172   -60.97
       2300   0.19875   144.21    2.4707    54.51   0.22572    62.55   0.32085   -61.95
       2350    0.2025   142.79    2.4249    53.62   0.23028    62.23   0.31939   -62.82
       2400   0.20437   141.36    2.3819    52.71   0.23504    61.90    0.3193   -63.79
       2450   0.20751   139.63    2.3412    51.79   0.23968    61.55   0.31769   -64.82
       2500   0.20902   137.91     2.302    50.89    0.2446    61.25   0.31813   -65.81
       2600   0.21392   135.20    2.2285    49.14   0.25404    60.52   0.31743   -68.04
       2700   0.22228   132.71    2.1618    47.45   0.26377    59.88    0.3155   -69.92
       2800   0.22685   129.54    2.0999    45.69    0.2737    59.12   0.31566   -72.01
       2900   0.23296   126.68    2.0438    44.01   0.28346    58.37   0.31462   -74.11
       3000   0.24067   124.12    1.9919    42.34   0.29353    57.60   0.31307   -75.98
       3100   0.24378   121.64    1.9413    40.62   0.30349    56.72   0.31391   -78.19
       3200   0.24859   119.23    1.8934    38.99    0.3134    55.87   0.31482   -80.40
       3300   0.25647   117.31    1.8495    37.38   0.32324    55.04   0.31393   -82.40
       3400   0.26166   115.18    1.8076    35.81   0.33289    54.12   0.31442   -84.91
       3500    0.2663   112.90    1.7687    34.24   0.34248    53.21   0.31549   -87.47
       3600   0.27519   111.14    1.7336    32.74   0.35239    52.42   0.31463   -89.38
       3700   0.28092   109.09    1.6995    31.19   0.36231    51.50   0.31414   -91.83
       3800   0.28616   106.83    1.6662    29.64   0.37212    50.51   0.31511   -94.66
       3900    0.2947   105.07    1.6362    28.17   0.38211    49.61   0.31518   -96.72
       4000   0.29972   103.39    1.6068    26.72   0.39188    48.68    0.3152   -98.93
       4100   0.30555   101.41    1.5785    25.18   0.40142    47.67   0.31596  -101.76
       4200   0.31401    99.75    1.5527    23.74   0.41135    46.68   0.31654  -104.20
       4300   0.32101    98.15    1.5279    22.33   0.42121    45.70   0.31652  -106.44
       4400   0.32462    96.22    1.5011    20.91   0.43042    44.65   0.31739  -109.18
       4500   0.33455    94.69    1.4798    19.50   0.44042    43.64    0.3189  -111.63
       4600    0.3408    93.23    1.4577    18.13   0.44992    42.62   0.31968  -113.98
       4700   0.34336    91.59     1.435    16.80   0.45883    41.57   0.32018  -116.68
       4800   0.35336    90.05    1.4154    15.49   0.46871    40.54   0.32106  -119.18
       4900   0.36081    88.63    1.3951    14.14   0.47803    39.47   0.32239  -121.73
       5000   0.36328    87.18    1.3754    12.84   0.48671    38.40   0.32358  -124.55
       5200   0.37984    84.46    1.3406    10.35   0.50563    36.23   0.32567  -129.09
       5400   0.39029    81.65    1.3051     7.82    0.5224    34.01   0.32924  -134.78
       5600   0.40176    78.88    1.2729     5.46   0.53926    31.79   0.33224  -139.94
       5800   0.41917    76.51     1.245     3.03   0.55575    29.48   0.33756  -144.89
       6000   0.42814    73.96    1.2144     0.83   0.56987    27.29   0.33965  -150.61

