! Filename:  P:\Prog\Test\Noise\ATS_data\Testdata_Net\03 Spar\BFU550A_APG2013_35_C05_03p3V_025mA_SP_CM01_D.s2p
! Date/Time: Tue 16/Apr/2013 15:10:19
! BFU550A_APG2013_35_C05_03p3V_1to35mA_SP_CM01_Bias7_R.s2p
! MDIF S-parameter v. bias file
! BFU530A_APG2013_33_A09_08p0V_015mA_SP_CM01
! Date/time Mon Apr 15 14:22:32 2013
! VAR V_out= 3.3000
! VAR I_out= 24.9950
! VAR V_in= 0.8506
! VAR I_in= 0.2843
! Device data file deembeded for feedlines and parallel
! Original file: \03 Spar\BFU550A_APG2013_35_C05_03p3V_025mA_SP_CM01_R.s2p
! Feed-files: PR017V01_150413_Feed1.s2p, PR017V01_150413_Feed2.s2p
! Parallel-file: PR017V01_150413_Par.s2p
# MHz S MA R 50
!  Freq-MHz   S11-mag  S11-arg   S21-mag  S21-arg   S12-mag  S12-arg   S22-mag  S22-arg
         40   0.43207   -33.95     39.06   158.31 0.0079075    79.72   0.91277   -14.15
         50   0.42112   -41.80    37.608   153.79  0.009677    77.26   0.88588   -17.44
         60   0.40987   -49.18    36.262   149.05  0.011257    75.40   0.85621   -20.12
         70   0.39982   -56.07    34.812   145.01   0.01275    73.87   0.82604   -22.51
         80   0.38911   -62.57    33.304   141.18  0.014135    72.56   0.79587   -24.66
         90   0.37854   -68.57    31.799   137.71  0.015442    71.45   0.76564   -26.43
        100   0.36944   -74.14    30.401   134.53  0.016658    70.62   0.73736   -27.98
        120   0.35221   -84.43     27.72   128.97  0.018877    69.42   0.68483   -30.41
        140     0.338   -93.23    25.304   124.30  0.020926    68.86   0.63903   -32.02
        160   0.32615  -100.97    23.121   120.39  0.022937    68.55   0.60037   -33.11
        180   0.31638  -107.90    21.265   116.99  0.024838    68.55   0.56625   -33.82
        200   0.30882  -113.76    19.634   114.09   0.02668    68.71   0.53814   -34.20
        220   0.30261  -119.01    18.262   111.48  0.028472    69.11   0.51462   -34.44
        240   0.29693  -123.84    17.007   109.21  0.030238    69.42   0.49381   -34.44
        260   0.29271  -128.18    15.917   107.13  0.032073    69.78   0.47644   -34.44
        280   0.28976  -132.10    14.947   105.33  0.033867    70.20   0.46127   -34.33
        300   0.28664  -135.58     14.07   103.68  0.035687    70.59   0.44824   -34.12
        320   0.28438  -138.71    13.293   102.20  0.037504    70.92   0.43668   -34.00
        340   0.28192  -141.78    12.595   100.77   0.03933    71.27   0.42671   -33.73
        360   0.28044  -144.49    11.968    99.49  0.041171    71.60   0.41805   -33.59
        380   0.27897  -147.05    11.389    98.29  0.042967    71.88   0.40983   -33.40
        400   0.27776  -149.42    10.872    97.16  0.044844    72.23   0.40334   -33.17
        420   0.27715  -151.63    10.396    96.05  0.046722    72.47   0.39702   -33.05
        433   0.27667  -153.14    10.109    95.40  0.047917    72.61   0.39351   -32.91
        440   0.27675  -153.80    9.9579    95.04  0.048593    72.66   0.39152   -32.86
        460    0.2757  -155.64    9.5529    94.10  0.050456    72.91   0.38675   -32.81
        480   0.27555  -157.45    9.1816    93.17  0.052289    73.10   0.38186   -32.69
        500   0.27512  -159.32    8.8373    92.29  0.054185    73.28   0.37819   -32.59
        550   0.27443  -163.53    8.0932    90.14  0.058788    73.70   0.36794   -32.36
        600   0.27379  -167.04    7.4579    88.27  0.063618    73.95   0.36178   -32.41
        650   0.27432  -170.33    6.9138    86.51  0.068379    74.14   0.35653   -32.60
        700    0.2743  -173.33    6.4456    84.84  0.073153    74.28   0.35209   -32.79
        750   0.27516  -176.18    6.0345    83.28  0.077973    74.39   0.34824   -33.01
        800   0.27588  -178.69    5.6769    81.80  0.082781    74.40   0.34538   -33.50
        850   0.27756   178.72     5.359    80.34  0.087584    74.40   0.34175   -33.92
        900    0.2782   176.28     5.075    78.95  0.092463    74.37   0.33956   -34.42
        950   0.27891   174.14    4.8225    77.59  0.097304    74.29   0.33786   -35.07
       1000   0.27947   172.01    4.5935    76.25    0.1022    74.21   0.33618   -35.59
       1050   0.28076   169.96    4.3839    74.98    0.1071    74.08   0.33486   -36.22
       1100   0.28243   167.97    4.1964    73.73   0.11202    73.91   0.33359   -36.95
       1150   0.28417   166.07    4.0238    72.51   0.11695    73.73   0.33189   -37.61
       1200   0.28521   164.23    3.8661    71.30   0.12191    73.52   0.33123   -38.48
       1250   0.28673   162.41    3.7208    70.10   0.12686    73.29   0.33025   -39.30
       1300   0.28714   160.70    3.5876    68.94   0.13183    73.06   0.32999   -40.07
       1350    0.2889   159.06    3.4639    67.81   0.13675    72.79   0.32928   -40.96
       1400   0.29142   157.37    3.3499    66.68   0.14176    72.55   0.32813   -41.76
       1450   0.29253   155.76    3.2433    65.56   0.14676    72.26   0.32764   -42.64
       1500   0.29497   154.10    3.1415    64.44   0.15178    71.97   0.32672   -43.64
       1550   0.29556   152.55    3.0491    63.34   0.15681    71.65    0.3264   -44.57
       1600   0.29692   151.16    2.9614    62.29   0.16185    71.34   0.32648   -45.53
       1650   0.29879   149.64    2.8801    61.22   0.16694    71.02   0.32619   -46.49
       1700   0.30044   148.28    2.8033    60.16   0.17199    70.69   0.32611   -47.41
       1750   0.30281   146.80    2.7313    59.12   0.17694    70.35   0.32532   -48.41
       1800   0.30594   145.49    2.6636    58.09   0.18205    70.01   0.32429   -49.44
       1850    0.3063   144.07    2.5996    57.04   0.18721    69.65   0.32492   -50.48
       1900   0.30793   142.69    2.5369    56.01   0.19229    69.24    0.3249   -51.71
       1950   0.30977   141.21    2.4788    55.02   0.19729    68.89   0.32456   -52.69
       2000   0.31201   140.19    2.4225    54.05   0.20231    68.50    0.3247   -53.74
       2050   0.31461   138.91    2.3692    53.11   0.20727    68.17   0.32362   -54.75
       2100   0.31747   137.89    2.3201    52.18   0.21239    67.84   0.32302   -55.79
       2150   0.32071   136.40    2.2749    51.25   0.21785    67.49   0.32328   -56.98
       2200   0.32243   135.13    2.2334    50.28   0.22314    67.03   0.32258   -58.11
       2250   0.32304   133.75    2.1911    49.26   0.22839    66.59   0.32407   -59.23
       2300   0.32556   132.58    2.1481    48.32   0.23347    66.14   0.32383   -60.40
       2350   0.32912   131.64    2.1084    47.42   0.23844    65.76   0.32289   -61.45
       2400   0.33109   130.59    2.0711    46.51   0.24357    65.35   0.32333   -62.62
       2450   0.33391   129.31     2.035    45.60   0.24867    64.93   0.32217   -63.82
       2500   0.33568   128.13    2.0009    44.70   0.25402    64.53   0.32296   -65.00
       2600   0.34035   126.00    1.9369    42.94   0.26429    63.65   0.32315   -67.56
       2700   0.34842   124.16    1.8782    41.27   0.27491    62.89   0.32214   -69.78
       2800   0.35258   121.63    1.8237    39.50   0.28573    61.97    0.3229   -72.21
       2900   0.35855   119.37    1.7746    37.81   0.29641    61.09   0.32277   -74.64
       3000   0.36577   117.36    1.7289    36.16   0.30747    60.19   0.32206   -76.85
       3100     0.369   115.15    1.6844    34.44   0.31828    59.14   0.32331   -79.40
       3200   0.37345   113.17    1.6419    32.82   0.32904    58.15   0.32477   -81.92
       3300   0.38072   111.41    1.6038    31.25   0.33985    57.19   0.32454   -84.20
       3400   0.38516   109.45    1.5664    29.69   0.35026    56.12   0.32539   -86.98
       3500   0.38921   107.42    1.5316    28.13   0.36068    55.06   0.32691   -89.81
       3600   0.39768   105.82     1.501    26.67   0.37157    54.14    0.3269   -92.05
       3700   0.40236   103.88    1.4702    25.16   0.38225    53.09   0.32688   -94.74
       3800   0.40691   101.85    1.4404    23.64   0.39279    51.96   0.32835   -97.80
       3900   0.41495   100.21    1.4138    22.22   0.40373    50.93   0.32889  -100.16
       4000   0.41942    98.54    1.3876    20.80   0.41429    49.87   0.32944  -102.63
       4100   0.42375    96.63    1.3619    19.33   0.42438    48.70   0.33077  -105.69
       4200   0.43172    95.02     1.339    17.95   0.43506    47.58   0.33181  -108.34
       4300   0.43779    93.41    1.3166    16.59   0.44574    46.46   0.33213  -110.86
       4400   0.44035    91.52    1.2924    15.25   0.45541    45.29   0.33342  -113.79
       4500   0.44922    89.98    1.2739    13.92   0.46622    44.14   0.33555  -116.46
       4600   0.45471    88.52    1.2539    12.65   0.47622    43.00   0.33654  -119.03
       4700   0.45605    86.81    1.2332    11.38   0.48551    41.81    0.3374  -121.91
       4800   0.46487    85.32    1.2159    10.19   0.49592    40.65   0.33889  -124.65
       4900   0.47119    83.84    1.1978     8.92   0.50579    39.45   0.34058  -127.35
       5000   0.47256    82.35    1.1798     7.74   0.51458    38.26   0.34204  -130.32
       5200    0.4867    79.54    1.1488     5.45   0.53425    35.85    0.3448  -135.29
       5400    0.4941    76.63    1.1174     3.15   0.55103    33.40    0.3488  -141.17
       5600    0.5028    73.79    1.0885     1.04   0.56786    30.97   0.35227  -146.60
       5800   0.51693    71.30     1.064    -1.14   0.58429    28.45   0.35792  -151.76
       6000   0.52263    68.69     1.037    -3.06   0.59777    26.09   0.36067  -157.60

