! Created Mon Aug  5 12:33:04 2024
# mhz S ma R 50
! 2 Port Network Data from SP1.SP block
! freq  magS11  angS11  magS21  angS21  magS12  angS12  magS22  angS22  
!     
400       0.225739922        -141.256401         11.2262107          98.096816        0.050750551         73.6357294        0.376930097        -38.9038668
425       0.222723285        -144.498297         10.6154893         96.7318446       0.0534470799         73.9549821        0.367346933        -38.6256042
450        0.22017248        -147.519184         10.0664672         95.4595099       0.0561597918         74.2386779        0.358987609        -38.3583829
475       0.218011758        -150.345104         9.57056183          94.266394       0.0588874397         74.4885195        0.351660016        -38.1091687
500       0.216180081        -152.998309         9.12065994         93.1415211       0.0616288156         74.7065434        0.345206987        -37.8826715
525       0.214627947        -155.497896         8.71082784         92.0758364       0.0643827863         74.8949133         0.33949921        -37.6819361
550       0.213314946        -157.860327         8.33608417          91.061811       0.0671483094         75.0557935          0.3344297        -37.5087825
575       0.212207886        -160.099847         7.99222154         90.0931383       0.0699244373         75.1912758        0.329909455        -37.3641341
600       0.211279335        -162.228832         7.67566547         89.1644996       0.0727103154         75.3033379        0.325864052         -37.248264
625       0.210506483        -164.258075         7.38336226         88.2713809       0.0755051769         75.3938241         0.32223094        -37.1609777
650       0.209870258        -166.197018         7.11268935         87.4099277       0.0783083355         75.4644382        0.318957289        -37.1017513
675       0.209354624        -168.053952         6.86138315         86.5768312       0.0811191784         75.5167439        0.315998278        -37.0698336
700       0.208946026        -169.836178         6.62748064         85.7692357       0.0839371582          75.552171        0.313315707        -37.0643226
725       0.208632946        -171.550151         6.40927183         84.9846649       0.0867617864         75.5720229        0.310876882        -37.0842222
750       0.208405551        -173.201589         6.20526079         84.2209617       0.0895926269         75.5774862        0.308653706        -37.1284842
775       0.208255405        -174.795575          6.0141336          83.476239       0.0924292897         75.5696401        0.306621942        -37.1960388
800       0.208175238         -176.33664          5.8347318         82.7488392       0.0952714258         75.5494656        0.304760603        -37.2858172
825       0.208158758        -177.828833         5.66603032         82.0373012       0.0981187226         75.5178553        0.303051451         -37.396767
850       0.208200492        -179.275782         5.50711897         81.3403319          0.1009709         75.4756207        0.301478582        -37.5278637
875       0.208295666         179.319254         5.35718698         80.6567837        0.103827704         75.4235011        0.300028085        -37.6781181
900       0.208440095          177.95334         5.21550988         79.9856346         0.10668891         75.3621699        0.298687753        -37.8465811
925       0.208630096         176.623827          5.0814384         79.3259716        0.109554313         75.2922413        0.297446841        -38.0323464
950       0.208862415          175.32832         4.95438907         78.6769771        0.112423726         75.2142762        0.296295864        -38.2345522
975       0.209134171         174.064646         4.83383609         78.0379168        0.115296983         75.1287874        0.295226428         -38.452381
1000       0.209442798         172.830832          4.7193045         77.4081297        0.118173931          75.036244        0.294231082        -38.6850596
1025       0.209786006         171.625082         4.61036415         76.7870189        0.121054433         74.9370761        0.293303198        -38.9318575
1050       0.210161742         170.445757         4.50662463         76.1740447        0.123938362         74.8316781        0.292436863        -39.1920862
1075       0.210568162          169.29136         4.40773075         75.5687178        0.126825602         74.7204123        0.291626793        -39.4650966
1100       0.211003603          168.16052         4.31335873         74.9705936        0.129716049          74.603612        0.290868252         -39.750278
1125       0.211466559         167.051978          4.2232128         74.3792676        0.132609604         74.4815841        0.290156987        -40.0470558
1150       0.211955663         165.964581         4.13702223         73.7943706        0.135506178         74.3546115        0.289489172        -40.3548895
1175        0.21246967         164.897263         4.05453878         73.2155656        0.138405689         74.2229553        0.288861356         -40.673271
1200       0.213007444         163.849044         3.97553442         72.6425441        0.141308059         74.0868568        0.288270424        -41.0017227
1225       0.213567943         162.819017         3.89979928         72.0750231        0.144213216         73.9465393        0.287713554        -41.3397955
1250        0.21415021         161.806346         3.82713995          71.512743        0.147121094         73.8022096        0.287188188        -41.6870672
1275       0.214753362         160.810253         3.75737785         70.9554649         0.15003163         73.6540593        0.286692004        -42.0431408
1300       0.215376585         159.830017         3.69034787          70.402969        0.152944763         73.5022666        0.286222888         -42.407643
1325       0.216019121          158.86497         3.62589712         69.8550524        0.155860438         73.3469966        0.285778914        -42.7802226
1350       0.216680268         157.914487         3.56388381         69.3115279        0.158778601         73.1884034        0.285358325         -43.160549
1375       0.217359372         156.977988         3.50417629         68.7722221          0.1616992           73.02663        0.284959514        -43.5483111
1400       0.218055821         156.054931         3.44665214         68.2369748        0.164622188           72.86181        0.284581011         -43.943216
1425       0.218769042         155.144807         3.39119739         67.7056372        0.167547515          72.694068        0.284221468        -44.3449876
1450       0.219498496         154.247144          3.3377058         67.1780714        0.170475137         72.5235201        0.283879649         -44.753366
1475       0.220243678         153.361495         3.28607821         66.6541492        0.173405008         72.3502752        0.283554417         -45.168106
1500       0.221004108         152.487444           3.236222         66.1337513        0.176337084         72.1744349        0.283244725        -45.5889762
1525       0.221779336         151.624598         3.18805049         65.6167666        0.179271323         71.9960944        0.282949611        -46.0157585
1550       0.222568932         150.772588         3.14148254         65.1030915        0.182207681          71.815343        0.282668187         -46.448247
1575       0.223372489         149.931066         3.09644208         64.5926294        0.185146118         71.6322643        0.282399631         -46.886247
1600       0.224189621         149.099703         3.05285773           64.08529         0.18808659          71.446937        0.282143187        -47.3295749
1625       0.225019958         148.278189         3.01066246         63.5809887        0.191029056         71.2594347        0.281898152        -47.7780569
1650       0.225863147         147.466232         2.96979322         63.0796466        0.193973474          71.069827        0.281663878        -48.2315288
1675       0.226718851         146.663554         2.93019071         62.5811895        0.196919802         70.8781792        0.281439762         -48.689835
1700       0.227586746          145.86989         2.89179904         62.0855479        0.199867999         70.6845527        0.281225247        -49.1528286
1725       0.228466521         145.084993         2.85456556         61.5926565         0.20281802         70.4890056        0.281019815        -49.6203702
1750       0.229357878         144.308623         2.81844057         61.1024541        0.205769823         70.2915925        0.280822983        -50.0923279
1775       0.230260527         143.540556         2.78337715         60.6148828        0.208723365          70.092365        0.280634304        -50.5685766
1800       0.231174193         142.780577         2.74933095         60.1298884        0.211678601         69.8913718        0.280453363        -51.0489977
1825       0.232098605          142.02848         2.71626002         59.6474197        0.214635486         69.6886592         0.28027977        -51.5334787
1850       0.233033506         141.284071         2.68412468         59.1674283        0.217593973         69.4842707        0.280113166         -52.021913
1875       0.233978643         140.547162         2.65288731         58.6898687        0.220554017         69.2782475        0.279953213         -52.514199
1900       0.234933774         139.817575         2.62251228         58.2146976        0.223515569         69.0706288        0.279799598        -53.0102406
1925       0.235898661         139.095139         2.59296579         57.7418743        0.226478581         68.8614517        0.279652029        -53.5099463
1950       0.236873076          138.37969         2.56421573         57.2713601        0.229443003         68.6507513        0.279510231        -54.0132291
1975       0.237856795         137.671072         2.53623164         56.8031185        0.232408784         68.4385612         0.27937395        -54.5200064
2000         0.2388496         136.969135         2.50898454         56.3371145        0.235375872          68.224913        0.279242949        -55.0301993
! Noise params
400       0.880002187        0.442846233        -175.626117       0.0383703867
425       0.881834366        0.445900602        -175.241575       0.0382316005
450       0.883769122        0.449090064        -174.840183       0.0380945185
475       0.885805027        0.452407433        -174.421774       0.0379608879
500       0.887940597        0.455845492        -173.986267        0.037832545
525       0.890174294        0.459397035        -173.533664       0.0377114137
550       0.892504531        0.463054895        -173.064041       0.0375995036
575       0.894929671        0.466811979        -172.577547       0.0374989079
600       0.897448036        0.470661289        -172.074391        0.037411802
625       0.900057906        0.474595953        -171.554841       0.0373404412
650       0.902757523         0.47860924        -171.019218       0.0372871585
675       0.905545098        0.482694583        -170.467885       0.0372543628
700       0.908418807        0.486845591        -169.901246       0.0372445368
725       0.911376804        0.491056065        -169.319739       0.0372602343
750       0.914417213        0.495320006        -168.723832       0.0373040784
775       0.917538143        0.499631626        -168.114014       0.0373787589
800       0.920737681        0.503985352        -167.490796       0.0374870304
825         0.9240139        0.508375832          -166.8547        0.037631709
850       0.927364863        0.512797936        -166.206263        0.037815671
875       0.930788622         0.51724676        -165.546026       0.0380418495
900       0.934283225        0.521717622        -164.874538       0.0383132323
925       0.937846714        0.526206064        -164.192345       0.0386328594
950       0.941477132        0.530707848        -163.499994       0.0390038202
975       0.945172522        0.535218952        -162.798028       0.0394292514
1000       0.948930932        0.539735567        -162.086984       0.0399123337
1025       0.952750416        0.544254093        -161.367392       0.0404562899
1050       0.956629036         0.54877113        -160.639773       0.0410643817
1075       0.960564864        0.553283477        -159.904638       0.0417399074
1100       0.964555984        0.557788122        -159.162486       0.0424861992
1125       0.968600495        0.562282239        -158.413804       0.0433066207
1150       0.972696509        0.566763178        -157.659068       0.0442045636
1175       0.976842157         0.57122846        -156.898737       0.0451834461
1200       0.981035589        0.575675771        -156.133259       0.0462467093
1225       0.985274973        0.580102953        -155.363067       0.0473978152
1250         0.9895585        0.584508001         -154.58858       0.0486402439
1275       0.993884382         0.58888905        -153.810201       0.0499774906
1300       0.998250854        0.593244377        -153.028321       0.0514130637
1325        1.00265618        0.597572386        -152.243314       0.0529504817
1350        1.00709863        0.601871606        -151.455542       0.0545932711
1375        1.01157654        0.606140685         -150.66535       0.0563449631
1400        1.01608822        0.610378384        -149.873071       0.0582090921
1425        1.02063205        0.614583567        -149.079024       0.0601891923
1450        1.02520641        0.618755203        -148.283515       0.0622887958
1475        1.02980974        0.622892353        -147.486836       0.0645114301
1500        1.03444046        0.626994169        -146.689266       0.0668606155
1525        1.03909707        0.631059888        -145.891073       0.0693398628
1550        1.04377806        0.635088827         -145.09251       0.0719526712
1575        1.04848197        0.639080378        -144.293822       0.0747025256
1600        1.05320736        0.643034005        -143.495239       0.0775928947
1625        1.05795283        0.646949239        -142.696982       0.0806272286
1650        1.06271699        0.650825672        -141.899262       0.0838089569
1675        1.06749849        0.654662957        -141.102278       0.0871414859
1700        1.07229603        0.658460801        -140.306219       0.0906281974
1725        1.07710829        0.662218963        -139.511267       0.0942724458
1750        1.08193403        0.665937251        -138.717592       0.0980775566
1775          1.086772        0.669615518        -137.925356        0.102046824
1800        1.09162101         0.67325366        -137.134714        0.106183511
1825        1.09647987        0.676851613         -136.34581        0.110490843
1850        1.10134743        0.680409348        -135.558783         0.11497201
1875        1.10622257        0.683926873        -134.773763        0.119630164
1900        1.11110419        0.687404226        -133.990872        0.124468418
1925        1.11599124        0.690841476        -133.210228         0.12948984
1950        1.12088265        0.694238721         -132.43194        0.134697456
1975        1.12577743        0.697596082         -131.65611        0.140094248
2000        1.13067457        0.700913705        -130.882837         0.14568315
