! File generated using interpolate_touchstone.py
! Bias conditions:
! Vcc = 2.99V
! Ic = 18.9mA
!
! Date: 2024-08-05 12:26:18.197340
! Created with skrf (http://scikit-rf.org).
# MHz S MA R 50.0 
!freq magS11 angS11 magS21 angS21 magS12 angS12 magS22 angS22
400.0 	0.255066 	-130.67 	11.490668 	100.62 	0.047819 	70.12 	0.426045 	-37.37
420.0 	0.252155 	-133.40 	11.005639 	99.41 	0.049718 	70.34 	0.417483 	-37.35
433.0 	0.249907 	-135.25 	10.710465 	98.70 	0.050932 	70.48 	0.412605 	-37.25
440.0 	0.249169 	-136.12 	10.554469 	98.31 	0.051595 	70.52 	0.409913 	-37.23
460.0 	0.246389 	-138.37 	10.136952 	97.29 	0.053492 	70.75 	0.403240 	-37.24
480.0 	0.244517 	-140.69 	9.752598 	96.29 	0.055338 	70.91 	0.396478 	-37.17
500.0 	0.242069 	-142.99 	9.396187 	95.35 	0.057219 	71.07 	0.391102 	-37.09
550.0 	0.237698 	-148.36 	8.620833 	93.04 	0.061860 	71.46 	0.377050 	-36.89
600.0 	0.234801 	-152.80 	7.956263 	91.05 	0.066720 	71.74 	0.367909 	-36.90
650.0 	0.232823 	-157.11 	7.383643 	89.19 	0.071518 	71.94 	0.360133 	-37.03
700.0 	0.231128 	-160.89 	6.889977 	87.44 	0.076330 	72.10 	0.353423 	-37.14
750.0 	0.230345 	-164.55 	6.455948 	85.82 	0.081156 	72.22 	0.347628 	-37.26
800.0 	0.229846 	-167.77 	6.078190 	84.28 	0.085992 	72.25 	0.343188 	-37.64
850.0 	0.230253 	-171.12 	5.741253 	82.77 	0.090832 	72.26 	0.338057 	-37.97
900.0 	0.230054 	-174.19 	5.439712 	81.35 	0.095731 	72.25 	0.334626 	-38.34
950.0 	0.230153 	-176.88 	5.170886 	79.97 	0.100587 	72.20 	0.331783 	-38.89
1000.0 	0.230231 	-179.55 	4.927464 	78.60 	0.105502 	72.12 	0.329128 	-39.29
1050.0 	0.231022 	177.91 	4.703728 	77.31 	0.110406 	72.01 	0.326839 	-39.80
1100.0 	0.232238 	175.47 	4.503317 	76.05 	0.115327 	71.85 	0.324798 	-40.43
1150.0 	0.233550 	173.11 	4.319146 	74.82 	0.120264 	71.67 	0.322394 	-40.98
1200.0 	0.234178 	170.84 	4.150453 	73.61 	0.125222 	71.48 	0.321106 	-41.75
1250.0 	0.235533 	168.65 	3.994939 	72.42 	0.130173 	71.28 	0.319554 	-42.46
1300.0 	0.235812 	166.60 	3.852478 	71.25 	0.135155 	71.05 	0.318750 	-43.14
1350.0 	0.237161 	164.67 	3.719905 	70.11 	0.140082 	70.79 	0.317542 	-43.94
1400.0 	0.239611 	162.60 	3.598100 	68.98 	0.145068 	70.56 	0.315890 	-44.65
1450.0 	0.240527 	160.72 	3.483917 	67.87 	0.150058 	70.29 	0.314959 	-45.44
1500.0 	0.242831 	158.77 	3.374959 	66.76 	0.155048 	70.00 	0.313633 	-46.37
1550.0 	0.243520 	157.00 	3.275228 	65.67 	0.160074 	69.68 	0.313014 	-47.21
1600.0 	0.244738 	155.34 	3.181293 	64.64 	0.165079 	69.40 	0.312760 	-48.09
1650.0 	0.246543 	153.65 	3.093885 	63.58 	0.170147 	69.08 	0.312203 	-48.97
1700.0 	0.248300 	152.04 	3.011394 	62.54 	0.175140 	68.75 	0.311752 	-49.82
1750.0 	0.250430 	150.37 	2.933938 	61.51 	0.180076 	68.41 	0.310685 	-50.75
1800.0 	0.253616 	148.82 	2.861562 	60.48 	0.185117 	68.09 	0.309353 	-51.72
1850.0 	0.254198 	147.33 	2.792353 	59.45 	0.190227 	67.74 	0.309800 	-52.69
1900.0 	0.255786 	145.73 	2.725084 	58.42 	0.195269 	67.32 	0.309588 	-53.87
1950.0 	0.257425 	144.09 	2.662664 	57.45 	0.200211 	66.98 	0.309033 	-54.78
2000.0 	0.259997 	143.02 	2.602512 	56.50 	0.205157 	66.60 	0.308970 	-55.77
400.0 1.0420035610362395 0.2451973526889461 -166.14622569322492 0.08162531811343797
420.0 0.9898337083523535 0.2562359772198547 -167.01421596168592 0.07675404477046414
433.0 1.0134617049820633 0.2456115703869623 -165.85321832551168 0.07941969554363823
440.0 1.0283353259647474 0.23706047059061902 -165.71081771876766 0.08168203639479543
460.0 1.0324842783055885 0.25303989593501824 -166.51089441196922 0.07714892906255046
480.0 1.0247512379268504 0.2474832975724729 -163.48037504371166 0.0794885549260107
500.0 1.0442412174413909 0.256299090087256 -164.53155985767202 0.07874660648610189
550.0 1.0490346082271675 0.24831812501543254 -164.0936215576209 0.079632219494506
600.0 1.1075639639426922 0.23502729363390537 -158.93270261923846 0.09510780314957629
650.0 1.0646617676862704 0.25379480033546986 -160.64996024785378 0.08318886655416463
700.0 1.0730158636872824 0.26784923982067355 -160.67098894263074 0.07886351622418261
750.0 1.0844701288250982 0.26509871451923406 -156.9740879506881 0.08541249629748564
800.0 1.0785438339110414 0.2816924920068912 -157.4118005735263 0.0788661466869371
850.0 1.0751763336798028 0.28309194147247707 -155.57526754958522 0.08039030794455357
900.0 1.0705629343916387 0.2870684058075692 -156.9641934705983 0.07842465325610191
950.0 1.1057298392493213 0.28424084873239897 -152.66842194281867 0.0831733063320462
1000.0 1.1010819343320277 0.29544523103139575 -153.87648456681598 0.07929853530926267
1050.0 1.1236878644071315 0.2871961131570172 -151.25927962219816 0.08471091448738662
1100.0 1.1236106537972392 0.3010175405664278 -148.45354440729162 0.08509809016040437
1150.0 1.1434394694171812 0.30820293731623183 -148.59026678781387 0.08469354037298672
1200.0 1.1413459449950294 0.30998812958974764 -146.8626750530059 0.08615260135092286
1250.0 1.1458403709181082 0.3177735494664306 -145.36796531940382 0.08609095810847521
1300.0 1.163928901162709 0.3204598583807542 -143.78797404625544 0.08927486609727567
1350.0 1.1655516020436991 0.31773482117367247 -145.3295117809968 0.08912038846508494
1400.0 1.1812802996804532 0.3185806085530983 -142.99110819207067 0.09452125318010986
1450.0 1.2081563022294333 0.33696784250547557 -140.47078776300276 0.09425781672517815
1500.0 1.2188014096734532 0.32919428427228203 -137.8878163334948 0.10080661775564295
1550.0 1.1810153538813903 0.3381656213605353 -138.20975505211166 0.09793411247645509
1600.0 1.206717612651783 0.34531603326603094 -135.26954234624606 0.10119074758335729
1650.0 1.2331231933426814 0.3116123360955745 -134.5436758253765 0.11755888218698601
1700.0 1.2042468540754996 0.3627980917270086 -135.30561694465305 0.09329042506087262
1750.0 1.2222248197429195 0.35083508099057753 -133.3863976655319 0.10451993771930804
1800.0 1.2332265565412366 0.36189233803545495 -132.7358310149742 0.10159629564108288
1850.0 1.2120647790487706 0.3519447466461033 -131.39066300867108 0.1115939396648605
1900.0 1.2568582298082802 0.34906400985600783 -127.81475222343191 0.11961176678472159
1950.0 1.3455267307412413 0.3344925202283045 -120.61319338272796 0.14651790869198977
2000.0 1.26265270927872 0.36271465643724704 -127.3904266291681 0.11953297550146091
