! File generated using interpolate_touchstone.py
! Bias conditions:
! Vcc = 2.99V
! Ic = 18.9mA
!
! Date: 2024-08-14 05:18:36.817997
! Created with skrf (http://scikit-rf.org).
# MHz S MA R 50.0 
!freq magS11 angS11 magS21 angS21 magS12 angS12 magS22 angS22
40.0 	0.520237 	-24.81 	35.409326 	161.39 	0.008242 	81.30 	0.942502 	-12.51
50.0 	0.507815 	-30.75 	34.338267 	157.51 	0.010124 	79.16 	0.921959 	-15.48
60.0 	0.494116 	-36.33 	33.443375 	153.30 	0.011905 	77.21 	0.897753 	-18.11
70.0 	0.480789 	-41.69 	32.414752 	149.65 	0.013548 	75.64 	0.872943 	-20.47
80.0 	0.466935 	-46.78 	31.299045 	146.14 	0.015125 	74.31 	0.847527 	-22.67
90.0 	0.452820 	-51.60 	30.168389 	142.92 	0.016591 	73.01 	0.821081 	-24.58
100.0 	0.439481 	-56.18 	29.120559 	139.89 	0.017983 	72.12 	0.795717 	-26.31
120.0 	0.413042 	-64.79 	27.011239 	134.47 	0.020537 	70.49 	0.746755 	-29.25
140.0 	0.389631 	-72.46 	25.023798 	129.79 	0.022868 	69.45 	0.701456 	-31.48
160.0 	0.368531 	-79.45 	23.147115 	125.78 	0.025104 	68.72 	0.661428 	-33.20
180.0 	0.349886 	-85.94 	21.505286 	122.19 	0.027186 	68.26 	0.624698 	-34.53
200.0 	0.334281 	-91.67 	20.023961 	119.10 	0.029166 	68.12 	0.593212 	-35.47
220.0 	0.320768 	-96.90 	18.755089 	116.29 	0.031073 	68.20 	0.566082 	-36.22
240.0 	0.308280 	-101.85 	17.568034 	113.82 	0.032945 	68.27 	0.541482 	-36.69
260.0 	0.297834 	-106.43 	16.518661 	111.56 	0.034835 	68.42 	0.520394 	-37.09
280.0 	0.289271 	-110.69 	15.575426 	109.59 	0.036687 	68.67 	0.501642 	-37.32
300.0 	0.281262 	-114.55 	14.711044 	107.77 	0.038542 	68.89 	0.485205 	-37.42
320.0 	0.274853 	-118.17 	13.939193 	106.14 	0.040383 	69.11 	0.470352 	-37.54
340.0 	0.268630 	-121.60 	13.239330 	104.58 	0.042243 	69.37 	0.457274 	-37.49
360.0 	0.263800 	-124.83 	12.608643 	103.18 	0.044127 	69.64 	0.445812 	-37.52
380.0 	0.259103 	-127.86 	12.020525 	101.85 	0.045947 	69.84 	0.434926 	-37.48
400.0 	0.254991 	-130.67 	11.490440 	100.61 	0.047822 	70.13 	0.426037 	-37.36
420.0 	0.252083 	-133.40 	11.005361 	99.41 	0.049722 	70.34 	0.417470 	-37.34
433.0 	0.249834 	-135.25 	10.710265 	98.70 	0.050936 	70.48 	0.412593 	-37.25
440.0 	0.249091 	-136.13 	10.554826 	98.31 	0.051599 	70.53 	0.409901 	-37.23
460.0 	0.246319 	-138.37 	10.137325 	97.29 	0.053496 	70.75 	0.403236 	-37.23
480.0 	0.244453 	-140.69 	9.752477 	96.29 	0.055342 	70.92 	0.396477 	-37.16
500.0 	0.241996 	-142.99 	9.396148 	95.35 	0.057223 	71.07 	0.391101 	-37.09
550.0 	0.237622 	-148.35 	8.620775 	93.04 	0.061864 	71.46 	0.377047 	-36.89
600.0 	0.234730 	-152.80 	7.956142 	91.05 	0.066724 	71.73 	0.367918 	-36.89
650.0 	0.232766 	-157.10 	7.383520 	89.19 	0.071523 	71.95 	0.360137 	-37.02
700.0 	0.231073 	-160.88 	6.889911 	87.44 	0.076335 	72.10 	0.353433 	-37.14
750.0 	0.230291 	-164.53 	6.455910 	85.82 	0.081160 	72.22 	0.347638 	-37.26
800.0 	0.229793 	-167.76 	6.078086 	84.28 	0.085995 	72.24 	0.343199 	-37.64
850.0 	0.230212 	-171.12 	5.741265 	82.77 	0.090836 	72.27 	0.338069 	-37.96
900.0 	0.230006 	-174.19 	5.439687 	81.35 	0.095733 	72.25 	0.334642 	-38.34
950.0 	0.230112 	-176.88 	5.170801 	79.97 	0.100589 	72.19 	0.331798 	-38.89
1000.0 	0.230189 	-179.54 	4.927481 	78.60 	0.105503 	72.12 	0.329145 	-39.28
1050.0 	0.230976 	177.92 	4.703652 	77.31 	0.110408 	72.01 	0.326853 	-39.80
1100.0 	0.232206 	175.47 	4.503281 	76.06 	0.115328 	71.85 	0.324813 	-40.42
1150.0 	0.233513 	173.12 	4.319137 	74.82 	0.120265 	71.68 	0.322402 	-40.98
1200.0 	0.234148 	170.85 	4.150456 	73.61 	0.125222 	71.49 	0.321116 	-41.74
1250.0 	0.235502 	168.65 	3.994998 	72.41 	0.130172 	71.27 	0.319561 	-42.47
1300.0 	0.235780 	166.60 	3.852490 	71.25 	0.135154 	71.06 	0.318763 	-43.14
1350.0 	0.237128 	164.67 	3.719980 	70.12 	0.140081 	70.80 	0.317554 	-43.94
1400.0 	0.239580 	162.60 	3.598111 	68.99 	0.145067 	70.56 	0.315902 	-44.65
1450.0 	0.240497 	160.73 	3.483948 	67.87 	0.150058 	70.29 	0.314971 	-45.43
1500.0 	0.242808 	158.77 	3.374950 	66.76 	0.155045 	69.99 	0.313643 	-46.37
1550.0 	0.243498 	157.01 	3.275261 	65.67 	0.160070 	69.68 	0.313023 	-47.21
1600.0 	0.244724 	155.34 	3.181283 	64.64 	0.165076 	69.40 	0.312770 	-48.09
1650.0 	0.246521 	153.65 	3.093878 	63.58 	0.170144 	69.07 	0.312212 	-48.97
1700.0 	0.248279 	152.04 	3.011393 	62.54 	0.175136 	68.75 	0.311761 	-49.82
1750.0 	0.250410 	150.37 	2.933944 	61.51 	0.180072 	68.41 	0.310694 	-50.76
1800.0 	0.253596 	148.84 	2.861573 	60.48 	0.185113 	68.08 	0.309362 	-51.72
1850.0 	0.254179 	147.33 	2.792324 	59.45 	0.190222 	67.73 	0.309808 	-52.69
1900.0 	0.255769 	145.73 	2.725104 	58.43 	0.195258 	67.33 	0.309597 	-53.87
1950.0 	0.257408 	144.09 	2.662682 	57.45 	0.200205 	66.97 	0.309040 	-54.78
2000.0 	0.259980 	143.02 	2.602508 	56.50 	0.205152 	66.60 	0.308977 	-55.77
2050.0 	0.262425 	141.63 	2.545308 	55.56 	0.210038 	66.27 	0.307698 	-56.72
2100.0 	0.265326 	140.45 	2.492228 	54.66 	0.215134 	65.95 	0.306857 	-57.71
2150.0 	0.268618 	138.87 	2.443764 	53.74 	0.220437 	65.59 	0.306933 	-58.87
2200.0 	0.270576 	137.47 	2.399098 	52.78 	0.225687 	65.15 	0.306043 	-59.95
2250.0 	0.270692 	136.03 	2.353447 	51.78 	0.230827 	64.72 	0.307406 	-61.00
2300.0 	0.273486 	134.76 	2.307771 	50.85 	0.235808 	64.28 	0.306949 	-62.11
2350.0 	0.277104 	133.69 	2.264802 	49.96 	0.240668 	63.89 	0.305853 	-63.12
2400.0 	0.279406 	132.62 	2.224970 	49.08 	0.245676 	63.49 	0.306082 	-64.23
2450.0 	0.282379 	131.24 	2.186251 	48.17 	0.250664 	63.08 	0.304789 	-65.40
2500.0 	0.283774 	129.94 	2.149431 	47.29 	0.255897 	62.69 	0.305498 	-66.53
2600.0 	0.288668 	127.75 	2.080724 	45.54 	0.265900 	61.84 	0.305418 	-69.01
2700.0 	0.296856 	125.82 	2.018145 	43.89 	0.276205 	61.08 	0.303956 	-71.14
2800.0 	0.301359 	123.13 	1.959502 	42.15 	0.286727 	60.19 	0.304559 	-73.50
2900.0 	0.307464 	120.77 	1.907125 	40.48 	0.297050 	59.33 	0.304102 	-75.85
3000.0 	0.314994 	118.70 	1.858186 	38.83 	0.307764 	58.46 	0.303013 	-77.94
3100.0 	0.318057 	116.45 	1.810621 	37.12 	0.318246 	57.45 	0.304139 	-80.42
3200.0 	0.322786 	114.42 	1.765355 	35.51 	0.328635 	56.48 	0.305449 	-82.86
3300.0 	0.330050 	112.66 	1.724663 	33.94 	0.339068 	55.55 	0.304986 	-85.03
3400.0 	0.334768 	110.70 	1.684838 	32.39 	0.349095 	54.53 	0.305714 	-87.77
3500.0 	0.339074 	108.66 	1.647897 	30.83 	0.359101 	53.50 	0.307116 	-90.55
3600.0 	0.347848 	107.05 	1.615306 	29.36 	0.369507 	52.62 	0.306808 	-92.69
3700.0 	0.352725 	105.15 	1.582587 	27.84 	0.379826 	51.60 	0.306620 	-95.32
3800.0 	0.357744 	103.06 	1.551525 	26.33 	0.389964 	50.52 	0.308087 	-98.35
3900.0 	0.366067 	101.43 	1.522731 	24.89 	0.400429 	49.53 	0.308369 	-100.61
4000.0 	0.370677 	99.82 	1.495427 	23.46 	0.410563 	48.52 	0.308781 	-103.01
4100.0 	0.375379 	97.91 	1.468303 	21.97 	0.420279 	47.40 	0.310056 	-106.03
4200.0 	0.383597 	96.32 	1.443923 	20.57 	0.430526 	46.32 	0.310968 	-108.61
4300.0 	0.389929 	94.75 	1.420366 	19.19 	0.440730 	45.26 	0.311136 	-111.05
4400.0 	0.392945 	92.88 	1.394892 	17.82 	0.450069 	44.14 	0.312436 	-113.94
4500.0 	0.402193 	91.38 	1.375217 	16.47 	0.460343 	43.04 	0.314442 	-116.53
4600.0 	0.408038 	89.97 	1.354190 	15.15 	0.469995 	41.95 	0.315366 	-119.03
4700.0 	0.410042 	88.32 	1.332284 	13.84 	0.478956 	40.82 	0.316232 	-121.88
4800.0 	0.419237 	86.84 	1.313810 	12.61 	0.488934 	39.71 	0.317631 	-124.54
4900.0 	0.425965 	85.42 	1.294752 	11.30 	0.498443 	38.57 	0.319292 	-127.18
5000.0 	0.427849 	83.94 	1.276122 	10.07 	0.507015 	37.44 	0.320804 	-130.13
5200.0 	0.442972 	81.24 	1.243504 	7.70 	0.525975 	35.14 	0.323541 	-134.93
5400.0 	0.451603 	78.41 	1.210416 	5.29 	0.542324 	32.79 	0.327717 	-140.76
5600.0 	0.461443 	75.69 	1.179940 	3.05 	0.558762 	30.48 	0.331330 	-146.10
5800.0 	0.476978 	73.26 	1.153382 	0.76 	0.574811 	28.07 	0.337178 	-151.14
6000.0 	0.484176 	70.73 	1.124971 	-1.30 	0.588214 	25.80 	0.340251 	-156.96
